!CSV A.01.01
!Agilent Technologies,N5230C,MY49000690,A.09.42.22
!Agilent N5230C: A.09.42.22
!Date: Wednesday, April 12, 2017 13:51:46
!Source: Standard

BEGIN CH1_DATA
Freq(Hz),S11(MAG),S11(DEG),S12(MAG),S12(DEG),S21(MAG),S21(DEG),S22(MAG),S22(DEG)
8300000000,0.52149272,155.09038,0.85240746,-115.16826,0.85126573,-115.38177,0.5216009,154.37296
8302562500,0.51946414,155.17844,0.85149658,-115.20673,0.85156727,-115.18916,0.52130914,154.24631
8305125000,0.52300924,154.98439,0.85457814,-115.29638,0.85461485,-115.63674,0.52148026,154.19208
8307687500,0.52021372,154.9265,0.8535524,-115.34423,0.85252613,-115.60864,0.52109873,154.17749
8310250000,0.51974773,154.85547,0.8526721,-115.31254,0.8526212,-115.61763,0.52045488,154.1673
8312812500,0.51965189,154.93533,0.8509059,-115.39797,0.85403788,-115.4463,0.51978546,154.19441
8315375000,0.51854551,154.84949,0.85238856,-115.46198,0.85246003,-115.44164,0.51847643,154.11679
8317937500,0.51813704,154.79195,0.85414857,-115.50964,0.85378784,-115.6957,0.51863259,153.95276
8320500000,0.5181917,154.72014,0.84905422,-115.56428,0.85185331,-115.73444,0.51637763,154.16222
8323062500,0.51749331,154.63957,0.85390747,-115.52754,0.85451531,-115.83187,0.51840466,154.00691
8325625000,0.51693708,154.61815,0.85402048,-115.65967,0.85471553,-115.59753,0.51769674,153.90691
8328187500,0.51705658,154.6373,0.8531357,-115.83329,0.85357642,-115.93648,0.51469463,153.80226
8330750000,0.51624566,154.54254,0.85399026,-115.71029,0.85376233,-115.94511,0.51593632,153.67323
8333312500,0.51775962,153.75174,0.85768801,-116.52203,0.85632342,-116.71522,0.51595068,152.82382
8335875000,0.51491678,154.48289,0.85709012,-115.64934,0.85535663,-116.05779,0.51692498,153.72121
8338437500,0.51379919,154.46367,0.85475415,-115.85052,0.8566789,-116.01582,0.51352197,153.51749
8341000000,0.51381058,154.49998,0.8560189,-115.93359,0.85463226,-116.08421,0.51276702,153.52165
8343562500,0.51393139,154.2468,0.85540348,-115.8849,0.85827696,-116.12133,0.51275188,153.48933
8346125000,0.51371866,154.13365,0.8572008,-115.93098,0.85855842,-116.17794,0.51095289,153.65401
8348687500,0.51374853,154.16022,0.85800278,-116.07412,0.85647827,-116.24228,0.51048613,153.3067
8351250000,0.51193637,154.22,0.85770297,-116.10448,0.85681713,-116.42583,0.51124805,153.25868
8353812500,0.51389217,154.13132,0.85931545,-116.06138,0.85781425,-116.41833,0.5111897,153.38116
8356375000,0.50833482,154.12694,0.8582164,-116.14021,0.85679877,-116.19795,0.50986588,153.30055
8358937500,0.50912488,153.91833,0.85696602,-116.25646,0.85536492,-116.43394,0.50968868,153.17032
8361500000,0.51028258,154.13109,0.86060297,-116.22421,0.85967672,-116.48955,0.50839382,153.08589
8364062500,0.50962704,153.75235,0.85809386,-116.23473,0.85768074,-116.68373,0.50895095,153.01337
8366625000,0.50892049,153.85655,0.85855323,-116.29867,0.85876638,-116.6376,0.50792938,153.00417
8369187500,0.50932688,153.99997,0.85961425,-116.44533,0.86233962,-116.54366,0.5067991,153.03404
8371750000,0.51129425,153.95869,0.86134672,-116.61568,0.86435676,-116.66445,0.50710797,153.00323
8374312500,0.5088436,153.86795,0.86403567,-116.5405,0.86132818,-116.62444,0.50729209,152.88181
8376875000,0.50789428,153.78546,0.86177278,-116.77484,0.86113685,-116.71531,0.50633252,152.75427
8379437500,0.50731558,153.75322,0.86474562,-116.79179,0.86141491,-116.85236,0.50659007,152.62692
8382000000,0.50642627,153.63248,0.86229801,-116.79867,0.86093205,-116.94422,0.50600255,152.67693
8384562500,0.50740659,153.58437,0.86310846,-116.92022,0.86331999,-117.06011,0.50544858,152.68913
8387125000,0.50618351,153.53227,0.86618203,-116.82664,0.86251378,-117.03754,0.50613326,152.65701
8389687500,0.50566757,153.42462,0.86260062,-117.02394,0.86111683,-117.14043,0.50380641,152.57307
8392250000,0.50543225,153.3882,0.86281312,-116.99449,0.86095786,-117.27271,0.50344026,152.53279
8394812500,0.50409991,153.23549,0.86406875,-117.14057,0.85962892,-117.2966,0.50376487,152.38846
8397375000,0.50416142,153.3046,0.86360025,-117.118,0.86287606,-117.39563,0.50333446,152.40355
8399937500,0.50409675,153.24463,0.86305285,-116.97082,0.86383021,-117.47166,0.5029313,152.6671
8402500000,0.50354975,153.09332,0.8653295,-117.27676,0.86348981,-117.58085,0.50240213,152.32852
8405062500,0.50400561,153.19083,0.86571383,-117.30138,0.86364174,-117.5192,0.50064415,152.28358
8407625000,0.50282758,153.13086,0.86560184,-117.30265,0.86304075,-117.35625,0.50071096,152.39134
8410187500,0.50174797,153.0018,0.86531508,-117.43787,0.86482227,-117.55016,0.50139445,152.21106
8412750000,0.50258017,153.08957,0.86534536,-117.48678,0.86582696,-117.60971,0.49990141,152.12146
8415312500,0.50213313,152.84088,0.8648591,-117.52061,0.86781675,-117.74806,0.49801832,152.2933
8417875000,0.50197285,152.80869,0.8657198,-117.53844,0.86743224,-117.7585,0.49937764,152.16905
8420437500,0.50052649,152.79729,0.86530244,-117.60281,0.86691093,-117.92868,0.49822623,152.01906
8423000000,0.5017162,152.76846,0.86806667,-117.66354,0.86742795,-117.8718,0.49868712,152.05457
8425562500,0.49836227,152.66786,0.86685491,-117.83016,0.8668465,-117.8299,0.4989498,152.08301
8428125000,0.49965823,152.62563,0.87002701,-117.80119,0.86740017,-117.97312,0.4983007,151.94374
8430687500,0.49817008,152.72916,0.86547244,-117.65591,0.86653548,-118.01343,0.4959614,151.95665
8433250000,0.49783316,152.47845,0.86538625,-117.91774,0.86813331,-118.03921,0.49673945,151.77046
8435812500,0.49747625,152.53168,0.86565065,-118.13971,0.86852705,-118.06426,0.49518877,151.68556
8438375000,0.4956269,152.24739,0.86744875,-118.07721,0.86711591,-118.33118,0.49527651,151.62213
8440937500,0.49696261,152.45059,0.86681652,-118.04653,0.86863703,-118.34665,0.49370608,151.58885
8443500000,0.49487886,152.31708,0.8682645,-117.85229,0.86826265,-118.39407,0.49463063,151.6129
8446062500,0.49778494,152.26801,0.86907297,-118.26511,0.87183452,-118.40532,0.4935945,151.52867
8448625000,0.49544719,152.12747,0.870233,-118.26463,0.86762494,-118.42426,0.49243841,151.48228
8451187500,0.49418533,152.08693,0.869398,-118.46568,0.86810964,-118.43514,0.4920851,151.33028
8453750000,0.49520984,151.95885,0.86886108,-118.26242,0.87023908,-118.58319,0.4908416,151.52652
8456312500,0.49375084,151.88231,0.86883694,-118.30175,0.86866516,-118.62006,0.48975238,151.49515
8458875000,0.49239996,152.09962,0.86842138,-118.33998,0.8709085,-118.46903,0.49025747,151.39491
8461437500,0.49439165,151.93816,0.87185806,-118.48429,0.8741563,-118.78658,0.49080601,151.14639
8464000000,0.49204496,152.05615,0.87189484,-118.57187,0.87111747,-118.64468,0.48961005,151.02644
8466562500,0.49097753,151.82961,0.87042075,-118.37923,0.86986256,-118.77255,0.48844439,151.25676
8469125000,0.4919073,151.79996,0.87192923,-118.6426,0.87231094,-118.82993,0.48827475,151.05479
8471687500,0.49144065,151.71144,0.87018949,-118.58308,0.87339789,-119.00652,0.48728228,151.0849
8474250000,0.48799974,151.59724,0.87268102,-118.8912,0.86712968,-118.9643,0.48711079,150.78392
8476812500,0.48868051,151.54581,0.87335461,-118.81453,0.87080222,-118.93238,0.48753011,150.95303
8479375000,0.48891094,151.46878,0.87180251,-118.84088,0.87287062,-119.07771,0.48642439,150.9444
8481937500,0.48793247,151.45473,0.87062675,-118.92051,0.87235123,-119.19795,0.48472968,150.78844
8484500000,0.48740259,151.50369,0.87263107,-118.7903,0.87105185,-119.10255,0.48521173,150.94876
8487062500,0.48681584,151.52325,0.8740086,-119.06923,0.87176108,-119.11398,0.48504552,150.64099
8489625000,0.48683283,151.41959,0.87444353,-119.08174,0.87189084,-119.17764,0.48448178,150.69461
8492187500,0.48663276,151.34651,0.87406451,-119.10327,0.87277865,-119.34557,0.48296753,150.59401
8494750000,0.48553848,151.2283,0.87494224,-119.2821,0.87194252,-119.50555,0.48315898,150.41742
8497312500,0.48595956,151.17456,0.87613934,-119.34398,0.87522727,-119.41994,0.48400807,150.48708
8499875000,0.48483849,151.17865,0.87419945,-119.35056,0.87682498,-119.41851,0.4832074,150.51039
8502437500,0.48418176,151.11531,0.87537146,-119.44386,0.87547344,-119.45058,0.48326087,150.37494
8505000000,0.48309663,150.93477,0.87670147,-119.44938,0.87328964,-119.71576,0.48224056,150.35251
8507562500,0.48444423,151.00887,0.87714696,-119.51836,0.87549007,-119.65209,0.48110384,150.31694
8510125000,0.4831776,150.8679,0.87557632,-119.50388,0.87600666,-119.92083,0.48048609,150.22212
8512687500,0.48319057,151.03999,0.87651807,-119.56656,0.87615305,-119.73827,0.47980499,150.15668
8515250000,0.48191294,150.96638,0.87556279,-119.70199,0.87583286,-119.67036,0.47951216,150.12572
8517812500,0.48196122,150.98349,0.87585789,-119.7644,0.87668908,-119.65273,0.47894514,150.09175
8520375000,0.4812026,150.60555,0.87769628,-119.84568,0.87774509,-120.0237,0.47986555,150.09476
8522937500,0.48037776,150.66956,0.87577689,-119.82027,0.87830365,-120.0425,0.47864789,149.99817
8525500000,0.47922632,150.69516,0.87517315,-119.99552,0.87620121,-120.03454,0.47737199,149.84279
8528062500,0.48049498,150.69919,0.87667239,-120.01601,0.8762449,-119.95245,0.47584364,149.99243
8530625000,0.47814992,150.54726,0.87593836,-119.88411,0.8764587,-120.18005,0.4763276,149.94984
8533187500,0.47970954,150.39218,0.87745005,-120.07989,0.87775105,-120.3013,0.47498757,149.84224
8535750000,0.47904581,150.33002,0.87787324,-120.13394,0.87936699,-120.3855,0.47554725,149.79066
8538312500,0.47748214,150.25549,0.8786701,-120.22283,0.87883723,-120.35949,0.47674659,149.80469
8540875000,0.47582266,150.2316,0.87831652,-120.23572,0.87573904,-120.42255,0.47544193,149.75815
8543437500,0.47670487,150.41103,0.87697661,-120.17632,0.87928969,-120.31319,0.47437948,149.73103
8546000000,0.47696626,150.13815,0.88269544,-120.46648,0.87886119,-120.54674,0.47579935,149.61497
8548562500,0.47370657,150.07681,0.88056463,-120.2451,0.8782326,-120.51923,0.47586468,149.79854
8551125000,0.47452238,150.14784,0.88226461,-120.38577,0.87958902,-120.4865,0.47564098,149.70641
8553687500,0.47488531,149.96826,0.878676,-120.51945,0.88069707,-120.72636,0.47274712,149.51363
8556250000,0.47435185,149.90622,0.87944895,-120.48318,0.8796438,-120.74578,0.47138739,149.52103
8558812500,0.47201529,149.89961,0.87847608,-120.64446,0.87709981,-120.71984,0.47110796,149.4091
8561375000,0.47253641,149.78712,0.88117176,-120.60733,0.87964237,-120.80651,0.47143197,149.47508
8563937500,0.47184333,149.70206,0.88062012,-120.72212,0.88071138,-120.86353,0.47166151,149.36046
8566500000,0.47062278,149.61311,0.88084543,-120.88988,0.87827706,-120.94799,0.47038355,149.30592
8569062500,0.46996206,149.5547,0.88248229,-120.76839,0.88028115,-121.00806,0.47069922,149.25349
8571625000,0.46971041,149.68607,0.88002944,-120.87189,0.8807112,-121.00052,0.46966735,149.21941
8574187500,0.47035703,149.53886,0.88172925,-120.95725,0.8814466,-121.0619,0.46868071,149.1436
8576750000,0.46885294,149.44832,0.88090992,-120.99057,0.88116831,-121.24831,0.46800846,149.14024
8579312500,0.46860862,149.39133,0.88071346,-121.03439,0.88219333,-121.2828,0.46798131,149.15933
8581875000,0.46836561,149.37759,0.88005233,-121.13218,0.88251203,-121.24751,0.46688625,149.03282
8584437500,0.46786332,149.27618,0.8809666,-121.29967,0.88230848,-121.25635,0.46626648,149.00851
8587000000,0.46650353,149.22966,0.88112974,-121.29991,0.88165206,-121.37245,0.46682513,148.87787
8589562500,0.46658564,149.24602,0.88060766,-121.31712,0.88284039,-121.38543,0.46627474,148.78111
8592125000,0.46584108,149.12843,0.88281089,-121.41369,0.88162881,-121.48878,0.46571594,148.74921
8594687500,0.46640736,149.03748,0.88363385,-121.23234,0.8848592,-121.57703,0.46500111,148.90512
8597250000,0.46446267,149.09964,0.88161385,-121.52117,0.88137347,-121.46246,0.46438709,148.69058
8599812500,0.46447045,149.04684,0.88432723,-121.424,0.88299108,-121.55677,0.46485144,148.79153
8602375000,0.46490622,148.95364,0.88491207,-121.69818,0.88505936,-121.71198,0.46439844,148.46843
8604937500,0.46455747,149.03758,0.88456237,-121.79402,0.88488984,-121.59119,0.46352527,148.38464
8607500000,0.463552,148.81506,0.88456619,-121.69785,0.88615358,-121.76024,0.46355101,148.55627
8610062500,0.4614934,148.64476,0.88476723,-121.48467,0.88348526,-122.00552,0.46266127,148.67841
8612625000,0.46284664,148.56114,0.88478172,-121.92192,0.88633758,-121.98608,0.46304497,148.39333
8615187500,0.46251756,148.45364,0.88684493,-121.82947,0.88661742,-121.99986,0.462264,148.53072
8617750000,0.46155462,148.58765,0.88531762,-121.80919,0.88531768,-122.07404,0.46136656,148.33786
8620312500,0.46150312,148.57538,0.88770568,-121.91488,0.88443512,-122.09011,0.46088281,148.2597
8622875000,0.46132398,148.56987,0.88505697,-121.86779,0.88450032,-122.12692,0.45953128,148.26857
8625437500,0.46090829,148.11362,0.88500565,-122.05066,0.88637775,-122.32764,0.45931035,148.23854
8628000000,0.45875973,148.41217,0.88699275,-122.07323,0.88473427,-122.2342,0.45981994,148.1543
8630562500,0.45766321,148.09491,0.88455075,-122.16663,0.88670957,-122.50945,0.45921192,147.98476
8633125000,0.45818725,148.24611,0.88980478,-122.29658,0.88640773,-122.4608,0.45958185,147.98869
8635687500,0.45961201,148.11752,0.88880181,-122.29096,0.88886714,-122.52985,0.45936283,147.96553
8638250000,0.45659858,148.16069,0.88705432,-122.49943,0.88584828,-122.4528,0.45749837,147.9032
8640812500,0.45832074,147.9119,0.88667119,-122.37429,0.8884747,-122.68995,0.45759183,147.86525
8643375000,0.45728874,147.86253,0.88687748,-122.53827,0.88839006,-122.56371,0.45768371,147.76297
8645937500,0.45656314,147.9407,0.88915414,-122.40948,0.88779074,-122.71049,0.45700592,147.78255
8648500000,0.45723492,147.9502,0.88955039,-122.4165,0.88958114,-122.8297,0.45672596,147.75177
8651062500,0.45485583,147.72649,0.88689905,-122.59632,0.88648444,-122.76197,0.45566815,147.64236
8653625000,0.4539116,147.76331,0.88694084,-122.68984,0.88669628,-122.77824,0.45557505,147.636
8656187500,0.45425117,147.67212,0.88797343,-122.78802,0.88880765,-122.82579,0.45593697,147.55313
8658750000,0.4545069,147.60158,0.89063889,-122.75475,0.88763332,-122.81062,0.45578364,147.67268
8661312500,0.45388168,147.51959,0.88825279,-122.8131,0.88813663,-123.08106,0.45453882,147.57309
8663875000,0.45463857,147.43596,0.88863045,-122.84053,0.88969439,-123.15518,0.45350775,147.34808
8666437500,0.4532901,147.33221,0.88962221,-122.98351,0.88853204,-123.25415,0.45337301,147.44632
8669000000,0.45237988,147.24413,0.88720131,-123.11662,0.88646519,-123.20257,0.45153162,147.30008
8671562500,0.45174682,147.13647,0.8890301,-123.18391,0.89039201,-123.32203,0.45306024,147.3111
8674125000,0.45218071,147.07559,0.89049357,-123.27135,0.89268261,-123.36388,0.45327446,147.24107
8676687500,0.45205325,147.13121,0.89083618,-123.16313,0.88958389,-123.36402,0.4520039,147.2486
8679250000,0.45076302,147.04926,0.88955086,-123.19543,0.89016527,-123.39186,0.45087916,147.3145
8681812500,0.45143786,146.99652,0.89462346,-123.27991,0.89171809,-123.28512,0.45253503,147.40327
8684375000,0.45185784,146.83667,0.8916536,-123.20734,0.8935281,-123.43456,0.44960782,147.32445
8686937500,0.45049775,146.77261,0.89366382,-123.45096,0.89253324,-123.58833,0.45087361,147.19995
8689500000,0.44888031,146.83658,0.89097583,-123.34371,0.89122254,-123.65473,0.44930246,147.16158
8692062500,0.44835907,146.68173,0.89244264,-123.55637,0.88989079,-123.67081,0.44958389,147.13179
8694625000,0.44918802,146.69902,0.89227217,-123.47146,0.8908242,-123.64079,0.44859418,147.04228
8697187500,0.44767502,146.51476,0.89143687,-123.61763,0.89224625,-123.82256,0.44896305,147.03497
8699750000,0.44737926,146.46721,0.89382052,-123.71904,0.89260972,-123.78344,0.44890368,146.98953
8702312500,0.44651461,146.61694,0.89290637,-123.79182,0.8920927,-123.8259,0.44768438,146.87686
8704875000,0.44635776,146.42406,0.89367521,-123.73388,0.89335865,-123.94524,0.44719517,146.85664
8707437500,0.44577572,146.3327,0.89281976,-123.911,0.89273453,-123.99373,0.4461247,146.83577
8710000000,0.44362634,146.22353,0.89385128,-123.81704,0.89130747,-124.04259,0.44637495,146.70654
8712562500,0.44422087,146.18452,0.89350593,-123.99928,0.89125735,-124.15501,0.44657573,146.67047
8715125000,0.44243753,146.16035,0.89398652,-124.06838,0.89279747,-124.11134,0.44506639,146.64668
8717687500,0.44407165,146.03615,0.89412725,-124.01374,0.89407808,-124.19436,0.44517273,146.63123
8720250000,0.4421998,146.32074,0.89447391,-123.95624,0.89284205,-124.11722,0.4451066,146.74289
8722812500,0.44281083,145.92476,0.89512902,-124.07015,0.89086735,-124.27591,0.44434711,146.50137
8725375000,0.44245434,145.90123,0.89688289,-124.23807,0.8938728,-124.30122,0.44599137,146.53754
8727937500,0.44157106,145.8421,0.89636928,-124.26342,0.89320993,-124.50278,0.4436653,146.35947
8730500000,0.44215235,145.7825,0.89522767,-124.4478,0.8940711,-124.58361,0.44297633,146.19398
8733062500,0.44240484,145.74142,0.89749497,-124.37054,0.89373845,-124.51528,0.44380888,146.34135
8735625000,0.440961,145.72496,0.89422315,-124.58128,0.89470714,-124.6034,0.44459262,146.11354
8738187500,0.4400647,145.66826,0.89256901,-124.52148,0.89412719,-124.68135,0.44231722,146.18021
8740750000,0.4401345,145.68169,0.89629096,-124.70647,0.89836884,-124.5388,0.44303715,146.20052
8743312500,0.4383181,145.74881,0.89209944,-124.60162,0.89496952,-124.6469,0.44146204,145.88792
8745875000,0.43914151,145.60483,0.89912975,-124.77742,0.8963775,-124.63355,0.44327998,146.17749
8748437500,0.43850258,145.5078,0.90058178,-124.60594,0.89665186,-124.91335,0.44227448,146.03043
8751000000,0.43677217,145.41862,0.89910525,-124.93322,0.89695418,-124.91632,0.44329706,145.9194
8753562500,0.43664154,145.36029,0.89713824,-124.97745,0.89285636,-125.08979,0.44044402,145.7748
8756125000,0.43616882,145.325,0.89381355,-124.83401,0.89275932,-124.9331,0.4386214,145.83511
8758687500,0.43650848,145.27196,0.89555031,-125.0335,0.89500797,-124.98067,0.43990442,145.68495
8761250000,0.43629894,145.24045,0.89589292,-125.02044,0.89601666,-124.90302,0.43928754,145.68446
8763812500,0.43537372,144.97319,0.89325202,-124.96858,0.89770526,-125.26453,0.43867847,145.63719
8766375000,0.43467045,144.90434,0.89605254,-125.20813,0.89699709,-125.33652,0.43881124,145.59187
8768937500,0.43486035,144.78072,0.89792478,-125.19131,0.89828038,-125.33483,0.43848237,145.5477
8771500000,0.43484056,144.73338,0.89940387,-125.2802,0.89824617,-125.36841,0.43825075,145.44246
8774062500,0.4345046,144.94969,0.89567941,-125.36401,0.89660275,-125.28175,0.43782127,145.42978
8776625000,0.43304738,144.77869,0.8965947,-125.30787,0.89738292,-125.46748,0.43761802,145.45168
8779187500,0.43330285,144.57564,0.89733899,-125.33502,0.89922398,-125.54227,0.43724298,145.37134
8781750000,0.43224978,144.56514,0.89728165,-125.30645,0.89809841,-125.56456,0.43763062,145.3884
8784312500,0.43177858,144.39346,0.89935261,-125.49134,0.89620262,-125.61086,0.43618441,145.31975
8786875000,0.43182775,144.36679,0.89720762,-125.52482,0.89821965,-125.63168,0.43623298,145.2635
8789437500,0.43300793,144.2419,0.89774889,-125.67289,0.90021628,-125.67282,0.43583238,145.29176
8792000000,0.43168727,144.28114,0.8990019,-125.72584,0.90014344,-125.78911,0.43434525,145.1496
8794562500,0.43078914,144.05814,0.89880359,-125.73369,0.89820957,-125.92377,0.43518734,144.98244
8797125000,0.43117055,144.09915,0.89573294,-125.70824,0.8997314,-125.99097,0.43410218,144.9534
8799687500,0.43040714,144.16028,0.90019274,-125.71684,0.89889282,-125.92162,0.43361732,145.18193
8802250000,0.43046144,143.95952,0.89910322,-125.82032,0.89953357,-125.94897,0.43340597,145.01746
8804812500,0.42912501,143.97604,0.89842784,-125.93227,0.90076107,-125.98601,0.43280706,144.73959
8807375000,0.4273915,143.82999,0.900006,-126.05907,0.8994751,-126.0491,0.43382296,144.71196
8809937500,0.42811933,143.87111,0.90158993,-125.97037,0.90066081,-126.16727,0.43296969,144.92339
8812500000,0.42790058,143.85968,0.90142125,-126.15819,0.90248996,-126.10047,0.43437761,144.65094
8815062500,0.42636827,143.65312,0.8972795,-126.1548,0.89576173,-126.19242,0.43048224,144.61589
8817625000,0.42598683,143.63531,0.89866912,-126.30136,0.89730656,-126.44374,0.43248206,144.65709
