!CSV A.01.01
!Agilent Technologies,N5230C,MY49000690,A.09.42.22
!Agilent N5230C: A.09.42.22
!Date: Wednesday, April 12, 2017 13:45:58
!Source: Standard

BEGIN CH1_DATA
Freq(Hz),S11(REAL),S11(IMAG),S12(REAL),S12(IMAG),S21(REAL),S21(IMAG),S22(REAL),S22(IMAG)
8300000000,-0.45797467,-0.23024285,-0.066712752,-0.85328597,-0.07004302,-0.85317141,-0.41719043,0.30287167
8302562500,-0.45745897,-0.23085439,-0.068848185,-0.8526485,-0.07061708,-0.85422093,-0.41608256,0.3039149
8305125000,-0.45862514,-0.23054586,-0.069459796,-0.85424876,-0.070660748,-0.85330606,-0.41646057,0.30389103
8307687500,-0.45842919,-0.22999792,-0.067747496,-0.8533724,-0.073356621,-0.853495,-0.41624159,0.30377084
8310250000,-0.45738345,-0.22848061,-0.070365585,-0.85453236,-0.073685147,-0.85199803,-0.41568428,0.30506244
8312812500,-0.458069,-0.22960964,-0.070403442,-0.85377657,-0.072211035,-0.85341305,-0.41556156,0.30487934
8315375000,-0.45898324,-0.23011056,-0.067501143,-0.85336441,-0.073917091,-0.85500848,-0.4150905,0.30401343
8317937500,-0.45658249,-0.23101737,-0.072301365,-0.85346532,-0.070665374,-0.85441375,-0.41361123,0.30588847
8320500000,-0.45644715,-0.23091432,-0.073663086,-0.84933633,-0.071303822,-0.85426515,-0.41097462,0.30503622
8323062500,-0.45623139,-0.22984983,-0.070149817,-0.85334098,-0.071468219,-0.85256004,-0.41512284,0.30505046
8325625000,-0.45762947,-0.22753474,-0.071963362,-0.85624874,-0.077722773,-0.85266054,-0.41425115,0.30860317
8328187500,-0.45777449,-0.22851638,-0.072658822,-0.85714215,-0.076861672,-0.85492676,-0.41394597,0.30918145
8330750000,-0.45663285,-0.22859707,-0.074898593,-0.85076237,-0.076293521,-0.85206485,-0.40997276,0.30722722
8333312500,-0.45994049,-0.22336662,-0.085151248,-0.85507077,-0.087848715,-0.85239917,-0.4067879,0.31440586
8335875000,-0.45717293,-0.22902501,-0.07468614,-0.85278469,-0.076828219,-0.85281605,-0.40955538,0.30824485
8338437500,-0.45506901,-0.22915193,-0.076082744,-0.85318667,-0.072977848,-0.85264301,-0.40962523,0.31002507
8341000000,-0.45573348,-0.22799298,-0.075948797,-0.85417789,-0.077709354,-0.8519612,-0.41006267,0.30933186
8343562500,-0.45694429,-0.22882429,-0.076994419,-0.8540259,-0.079534784,-0.85652232,-0.4082585,0.31114009
8346125000,-0.45723176,-0.22833458,-0.075536534,-0.8553738,-0.079210214,-0.85481495,-0.40881896,0.30944476
8348687500,-0.45697838,-0.22800051,-0.078230269,-0.85522097,-0.079926059,-0.85269105,-0.40646666,0.31064284
8351250000,-0.45738077,-0.22683947,-0.077804372,-0.85545373,-0.083546624,-0.85354489,-0.40897018,0.3115502
8353812500,-0.45627511,-0.22733568,-0.077207446,-0.85411525,-0.08215414,-0.85288924,-0.4074122,0.31003213
8356375000,-0.45457485,-0.22749174,-0.078593001,-0.85405314,-0.079663858,-0.85285586,-0.40709826,0.31163898
8358937500,-0.45525444,-0.22700414,-0.079658411,-0.8534894,-0.082460798,-0.85186785,-0.40424424,0.31171498
8361500000,-0.45619631,-0.22867092,-0.079873793,-0.85420901,-0.0837681,-0.85539252,-0.4048788,0.31346902
8364062500,-0.45395443,-0.22819491,-0.079796262,-0.85334337,-0.082725458,-0.85413891,-0.40438673,0.31338125
8366625000,-0.45497233,-0.22585501,-0.080303438,-0.85375559,-0.085003763,-0.85249472,-0.40327907,0.31294745
8369187500,-0.45480812,-0.2263362,-0.081677184,-0.85377032,-0.083690979,-0.85484934,-0.40418488,0.31387433
8371750000,-0.45567489,-0.22703147,-0.084349088,-0.85518426,-0.084614418,-0.85560358,-0.4034712,0.31438285
8374312500,-0.45679036,-0.22778472,-0.084488086,-0.85717243,-0.085407689,-0.85581458,-0.40252617,0.31496984
8376875000,-0.45629948,-0.2250448,-0.085547157,-0.85995269,-0.088682085,-0.85252059,-0.40289581,0.31659672
8379437500,-0.45614874,-0.22750983,-0.086112268,-0.85628742,-0.087394558,-0.85541385,-0.40095204,0.31672689
8382000000,-0.45632917,-0.22633816,-0.085206613,-0.85572523,-0.089751072,-0.85556579,-0.40149036,0.31616154
8384562500,-0.45613709,-0.2260415,-0.088411115,-0.85738856,-0.089864396,-0.85516363,-0.40096429,0.31762451
8387125000,-0.45723403,-0.22564012,-0.088450037,-0.85597724,-0.090813465,-0.85526448,-0.39997017,0.31656298
8389687500,-0.45726633,-0.22440669,-0.087522246,-0.85458773,-0.09316913,-0.85444903,-0.39943486,0.31582364
8392250000,-0.45604575,-0.2248228,-0.09067142,-0.85649228,-0.0931563,-0.85227472,-0.39813852,0.31873
8394812500,-0.45718306,-0.22465308,-0.090783224,-0.85611016,-0.093865022,-0.85494184,-0.39863315,0.31819355
8397375000,-0.45574388,-0.22581634,-0.09006343,-0.85685563,-0.092806853,-0.85477853,-0.39919689,0.31886229
8399937500,-0.45742819,-0.22465375,-0.087318465,-0.85701376,-0.096095867,-0.85604393,-0.39965609,0.3167721
8402500000,-0.45490482,-0.224131,-0.091561154,-0.85617411,-0.093435273,-0.85264868,-0.39759001,0.3189607
8405062500,-0.45633799,-0.2243727,-0.092055053,-0.85625434,-0.095909558,-0.85266572,-0.39585382,0.31904411
8407625000,-0.45634049,-0.22454759,-0.094369143,-0.85846287,-0.094823815,-0.85402161,-0.3972784,0.3197616
8410187500,-0.4554328,-0.22295427,-0.097132988,-0.85332799,-0.097102664,-0.85291409,-0.39419383,0.32088101
8412750000,-0.45640683,-0.2255787,-0.097139068,-0.85609603,-0.096069023,-0.85472375,-0.39360186,0.32173172
8415312500,-0.45725399,-0.22301881,-0.093032546,-0.85655427,-0.099095859,-0.85534966,-0.39580879,0.31892669
8417875000,-0.45685151,-0.22397146,-0.095890902,-0.85449845,-0.098562241,-0.8563779,-0.3938556,0.32059658
8420437500,-0.45696148,-0.2233735,-0.096763723,-0.85473549,-0.10104517,-0.85542643,-0.39332753,0.32113144
8423000000,-0.45632219,-0.22371235,-0.097760201,-0.85769749,-0.099443607,-0.85489303,-0.39362511,0.3219822
8425562500,-0.45584309,-0.22267377,-0.098367855,-0.85594612,-0.099236228,-0.85605931,-0.39392269,0.32149103
8428125000,-0.45648769,-0.22373235,-0.098028816,-0.8586365,-0.10077921,-0.85577524,-0.39312637,0.32259473
8430687500,-0.45473167,-0.22348441,-0.096297346,-0.85412818,-0.10109263,-0.85416275,-0.39205638,0.32139006
8433250000,-0.45521691,-0.22238404,-0.10038356,-0.8552109,-0.1006978,-0.85586458,-0.39194366,0.32339588
8435812500,-0.45598072,-0.222054,-0.10249247,-0.85425317,-0.10317189,-0.85448951,-0.38977742,0.32327417
8438375000,-0.4552204,-0.2214096,-0.10160386,-0.8533408,-0.10449939,-0.85454935,-0.38942516,0.32422021
8440937500,-0.45470032,-0.22226392,-0.10113496,-0.85615528,-0.10505618,-0.85323644,-0.38902265,0.32457489
8443500000,-0.45524445,-0.22201563,-0.099867962,-0.85558081,-0.10662801,-0.85553175,-0.3895337,0.32393345
8446062500,-0.45598978,-0.2215375,-0.10367084,-0.85470021,-0.10559683,-0.85554779,-0.3874813,0.32424471
8448625000,-0.45566118,-0.22170004,-0.10482465,-0.85658264,-0.10539529,-0.8540504,-0.38745368,0.3251327
8451187500,-0.45629826,-0.22184908,-0.10713644,-0.85520959,-0.10697046,-0.85558635,-0.38631713,0.3263917
8453750000,-0.45688361,-0.22131343,-0.10377591,-0.85649717,-0.10800006,-0.85643673,-0.38747719,0.32412356
8456312500,-0.45560732,-0.22119571,-0.10614526,-0.85737956,-0.10763238,-0.85469514,-0.38677567,0.32512039
8458875000,-0.45579022,-0.22249594,-0.10593069,-0.85598081,-0.10661451,-0.85833973,-0.38629901,0.3262077
8461437500,-0.4562903,-0.22110662,-0.1074348,-0.85639077,-0.11068217,-0.85790569,-0.3849293,0.32750803
8464000000,-0.4544417,-0.22212909,-0.10834172,-0.85701555,-0.10913898,-0.85479707,-0.38389736,0.32845575
8466562500,-0.45570225,-0.22108786,-0.10918905,-0.85516554,-0.11162705,-0.85654342,-0.38273776,0.32801709
8469125000,-0.45409247,-0.21901929,-0.11042922,-0.85510957,-0.11291739,-0.85190767,-0.38220581,0.32792184
8471687500,-0.45445621,-0.21799983,-0.11084502,-0.8544004,-0.11578897,-0.85328418,-0.38128042,0.32873109
8474250000,-0.45456976,-0.21980754,-0.11020545,-0.85334295,-0.11336457,-0.85436177,-0.38042593,0.32835141
8476812500,-0.45587644,-0.21822484,-0.11225857,-0.85638106,-0.11520252,-0.8559373,-0.38200286,0.32884759
8479375000,-0.45484689,-0.21945143,-0.11413631,-0.85467142,-0.11391473,-0.85596132,-0.38062999,0.33024147
8481937500,-0.45479557,-0.21965076,-0.11208203,-0.85180539,-0.11440716,-0.85611188,-0.37847239,0.3295266
8484500000,-0.45342121,-0.22041231,-0.11536543,-0.85453612,-0.11383355,-0.85386509,-0.37858173,0.33067703
8487062500,-0.45351088,-0.21956497,-0.11305719,-0.85811806,-0.11603703,-0.85461837,-0.37996992,0.3310506
8489625000,-0.45399573,-0.21839598,-0.11346705,-0.85659301,-0.1172406,-0.85441577,-0.37887782,0.33012158
8492187500,-0.454092,-0.21938591,-0.11674505,-0.85741156,-0.11809746,-0.85357416,-0.37787974,0.33157855
8494750000,-0.45487252,-0.21786727,-0.11560313,-0.85706776,-0.12086941,-0.85361946,-0.377114,0.33202738
8497312500,-0.45532373,-0.2185283,-0.11812054,-0.85599273,-0.1195987,-0.85625011,-0.37740514,0.33258927
8499875000,-0.45361793,-0.21892394,-0.11801305,-0.85498393,-0.11966766,-0.85733998,-0.37716869,0.33255854
8502437500,-0.45417142,-0.21820381,-0.11865731,-0.85518539,-0.12039112,-0.85642254,-0.37692845,0.33372626
8505000000,-0.45451212,-0.2167134,-0.12006912,-0.85710955,-0.12296244,-0.85418123,-0.37571108,0.33344609
8507562500,-0.45418355,-0.21799916,-0.12081382,-0.85800338,-0.12226211,-0.85497975,-0.37514102,0.33357525
8510125000,-0.45332336,-0.21747723,-0.12031522,-0.85588002,-0.12463117,-0.85393238,-0.375049,0.33410513
8512687500,-0.45338848,-0.21719967,-0.1210536,-0.85554105,-0.12524085,-0.8534776,-0.37312043,0.33500195
8515250000,-0.45354977,-0.21769167,-0.12277167,-0.85332072,-0.12197125,-0.85612786,-0.37267569,0.33458465
8517812500,-0.45434114,-0.21717276,-0.12279871,-0.85605389,-0.12338973,-0.8550064,-0.37307447,0.33506438
8520375000,-0.45387813,-0.21610898,-0.12529185,-0.85567135,-0.12561341,-0.85408932,-0.37373912,0.33640423
8522937500,-0.45262703,-0.21638374,-0.12505268,-0.8564564,-0.12568399,-0.85351086,-0.37376282,0.3372128
8525500000,-0.45376661,-0.2163301,-0.12521754,-0.85544115,-0.12850003,-0.85493129,-0.37169519,0.33632278
8528062500,-0.45635673,-0.21749255,-0.12728906,-0.85623503,-0.12574486,-0.85828567,-0.37091526,0.33622628
8530625000,-0.45453987,-0.21603741,-0.12439271,-0.85481101,-0.129706,-0.85845178,-0.37106702,0.33558923
8533187500,-0.45498866,-0.2156965,-0.12627479,-0.85660321,-0.130916,-0.85483867,-0.37009928,0.33573031
8535750000,-0.4539071,-0.21590973,-0.12732002,-0.85706252,-0.13035843,-0.85472673,-0.37009445,0.33640358
8538312500,-0.45411691,-0.21523038,-0.12680323,-0.85506141,-0.1290897,-0.85668588,-0.37004256,0.337385
8540875000,-0.4529292,-0.21379666,-0.12667771,-0.85515618,-0.13299799,-0.85315925,-0.36911491,0.33618048
8543437500,-0.45313373,-0.21458539,-0.12951878,-0.85383224,-0.13305919,-0.85468203,-0.36800686,0.33825502
8546000000,-0.45494187,-0.21570642,-0.13270374,-0.85502338,-0.13129601,-0.85634303,-0.36738518,0.33845216
8548562500,-0.45140854,-0.21319936,-0.13218509,-0.85553354,-0.13323019,-0.85344625,-0.36915442,0.33980876
8551125000,-0.45362782,-0.21272658,-0.13138059,-0.85372615,-0.13577402,-0.85735881,-0.36776251,0.33895943
8553687500,-0.45204255,-0.21497717,-0.12866497,-0.85429728,-0.13366744,-0.85273719,-0.36622804,0.33836636
8556250000,-0.45324385,-0.21453963,-0.13207419,-0.85530615,-0.13415019,-0.85417223,-0.3652724,0.33883107
8558812500,-0.45290855,-0.21270464,-0.13141373,-0.85457635,-0.13618955,-0.85371983,-0.36476925,0.33900023
8561375000,-0.45341474,-0.21217868,-0.13471732,-0.85393661,-0.13678849,-0.85513163,-0.36505663,0.33954376
8563937500,-0.45377049,-0.21374258,-0.13589862,-0.85546368,-0.13612583,-0.85597688,-0.36511648,0.34073994
8566500000,-0.45504433,-0.2133877,-0.13493453,-0.8559134,-0.13682656,-0.85427183,-0.36374488,0.34080282
8569062500,-0.45289111,-0.21331145,-0.13592748,-0.85607922,-0.13851354,-0.85429198,-0.3644385,0.34160393
8571625000,-0.45239562,-0.21299078,-0.13676527,-0.85395443,-0.13815624,-0.85505641,-0.36245105,0.34089252
8574187500,-0.45213348,-0.21223606,-0.13818021,-0.85472828,-0.13888671,-0.85450459,-0.36240104,0.34075677
8576750000,-0.45237544,-0.21167302,-0.13799965,-0.85413414,-0.14111839,-0.85306406,-0.36167726,0.34152392
8579312500,-0.45234835,-0.21238674,-0.13842423,-0.85339683,-0.14167324,-0.85469204,-0.36166063,0.34200776
8581875000,-0.45402035,-0.21297583,-0.13978153,-0.85375392,-0.14245905,-0.85475683,-0.35987341,0.34302619
8584437500,-0.4525615,-0.21181732,-0.14251283,-0.85410219,-0.14239827,-0.85396391,-0.36040461,0.34341145
8587000000,-0.45244285,-0.21182817,-0.14086467,-0.85340291,-0.14312549,-0.85286319,-0.35935554,0.34237862
8589562500,-0.45171073,-0.21222408,-0.14026222,-0.85285699,-0.14415897,-0.85481775,-0.35968199,0.34243253
8592125000,-0.45240304,-0.21142907,-0.14258888,-0.85486031,-0.14419217,-0.85444933,-0.35941306,0.3428089
8594687500,-0.45218572,-0.2117908,-0.14163698,-0.85684967,-0.14593926,-0.85423249,-0.36024776,0.34285975
8597250000,-0.45107323,-0.21160705,-0.14413619,-0.85621619,-0.1459512,-0.85561335,-0.35996711,0.34385136
8599812500,-0.45166045,-0.2113034,-0.14427362,-0.85421509,-0.1463875,-0.85438257,-0.35710889,0.34513706
8602375000,-0.4525941,-0.2118392,-0.14529678,-0.85693729,-0.14670318,-0.85482627,-0.35658243,0.34475306
8604937500,-0.45177233,-0.21201733,-0.14746583,-0.85340726,-0.14731938,-0.85438466,-0.35440809,0.34655455
8607500000,-0.45097309,-0.21080816,-0.1475756,-0.85394853,-0.14729066,-0.8537432,-0.35519555,0.34664613
8610062500,-0.45159161,-0.20982343,-0.1471758,-0.85354143,-0.15067415,-0.85659808,-0.35571215,0.34646139
8612625000,-0.45193753,-0.20952412,-0.14542527,-0.85442024,-0.14971572,-0.85456532,-0.35480097,0.3454029
8615187500,-0.45163015,-0.20923583,-0.14652582,-0.85598749,-0.15010314,-0.85461038,-0.35463566,0.34482825
8617750000,-0.45089009,-0.21090975,-0.14975782,-0.85578048,-0.14981718,-0.85237634,-0.35356352,0.34740487
8620312500,-0.45264187,-0.20930457,-0.14880131,-0.85360432,-0.15332744,-0.85533571,-0.3524133,0.34772581
8622875000,-0.45270801,-0.20807162,-0.15180574,-0.85672009,-0.15586193,-0.85628092,-0.35294661,0.34722462
8625437500,-0.45228714,-0.2085624,-0.15467642,-0.85321498,-0.15489568,-0.85292,-0.35232756,0.34732509
8628000000,-0.45065466,-0.20835985,-0.15372889,-0.85231566,-0.15556115,-0.8532573,-0.351834,0.34838802
8630562500,-0.45060086,-0.2087519,-0.15392749,-0.85248125,-0.15640995,-0.85464817,-0.3507548,0.3492097
8633125000,-0.4514448,-0.20890333,-0.15498634,-0.85573292,-0.15634355,-0.85409516,-0.35110444,0.34970137
8635687500,-0.44883728,-0.20755967,-0.15360938,-0.85525942,-0.16009942,-0.85213149,-0.35022298,0.34967977
8638250000,-0.44834822,-0.20659932,-0.1570562,-0.85280091,-0.15812218,-0.85123223,-0.34881416,0.3493742
8640812500,-0.45041347,-0.20667246,-0.15531051,-0.85439259,-0.16089515,-0.85335636,-0.34910363,0.35031143
8643375000,-0.4494473,-0.20658474,-0.15791024,-0.853535,-0.15943974,-0.85303092,-0.34960002,0.35099563
8645937500,-0.45091349,-0.2060976,-0.15579583,-0.85389602,-0.16124438,-0.85310024,-0.34808108,0.35097608
8648500000,-0.4519054,-0.2089323,-0.15776145,-0.85561782,-0.16196233,-0.85446072,-0.34834898,0.35100046
8651062500,-0.45108837,-0.20682907,-0.15754037,-0.8527723,-0.16076434,-0.85144067,-0.34818786,0.35165271
8653625000,-0.44946522,-0.20767011,-0.15911007,-0.85283875,-0.16052549,-0.85124892,-0.34795603,0.35350308
8656187500,-0.45037267,-0.20605856,-0.16077006,-0.85367543,-0.16133358,-0.85310531,-0.34719333,0.35309133
8658750000,-0.45038897,-0.20635626,-0.16094004,-0.85545999,-0.16211896,-0.8524437,-0.3462581,0.35172296
8661312500,-0.45065147,-0.20520407,-0.16123664,-0.8535307,-0.16420542,-0.85207832,-0.34665158,0.35101962
8663875000,-0.45143852,-0.20583406,-0.16134432,-0.85502106,-0.16551605,-0.85336113,-0.34653646,0.35222155
8666437500,-0.45073736,-0.20508185,-0.1641086,-0.85287648,-0.16463345,-0.85229367,-0.34422359,0.35232189
8669000000,-0.45129353,-0.20431684,-0.16357006,-0.85175478,-0.16616829,-0.84868693,-0.34299478,0.3504383
8671562500,-0.45114163,-0.20446923,-0.16657442,-0.85003263,-0.16832153,-0.85428381,-0.34298146,0.35447475
8674125000,-0.45078909,-0.20475338,-0.16648205,-0.85122758,-0.17005363,-0.85515493,-0.34316638,0.35459059
8676687500,-0.4511843,-0.20416786,-0.16574655,-0.85327363,-0.16934857,-0.8521111,-0.34274438,0.35445091
8679250000,-0.45036113,-0.20392933,-0.16812186,-0.85340977,-0.16856807,-0.85088634,-0.34404168,0.35482168
8681812500,-0.4509961,-0.20371819,-0.16660351,-0.85342628,-0.16883363,-0.84962338,-0.34307376,0.35251135
8684375000,-0.45108646,-0.20363981,-0.16762967,-0.85303694,-0.16839597,-0.8539322,-0.3421919,0.35363364
8686937500,-0.45083109,-0.20323573,-0.16918297,-0.85536647,-0.17220692,-0.85354424,-0.34228399,0.35364008
8689500000,-0.45007852,-0.20328775,-0.16779843,-0.85195595,-0.16979155,-0.85188258,-0.34098837,0.35422412
8692062500,-0.45050782,-0.20267817,-0.1700567,-0.85062993,-0.16883324,-0.85007018,-0.34138966,0.35543716
8694625000,-0.45077887,-0.20236623,-0.16873075,-0.85175431,-0.17434464,-0.8510192,-0.3402577,0.35457289
8697187500,-0.4503679,-0.20168565,-0.16869554,-0.8498742,-0.17428507,-0.85282022,-0.34043962,0.35569906
8699750000,-0.45039707,-0.20178631,-0.17145121,-0.84910738,-0.17268811,-0.85314977,-0.33982486,0.35578328
8702312500,-0.45013997,-0.20183764,-0.17217973,-0.85370219,-0.1738316,-0.85299516,-0.33818522,0.35660926
8704875000,-0.45156965,-0.20206301,-0.17231061,-0.85600013,-0.17274678,-0.85301661,-0.33790532,0.35753861
8707437500,-0.44992983,-0.20060037,-0.17434536,-0.85086823,-0.17721981,-0.85200721,-0.33769622,0.35620159
8710000000,-0.44928035,-0.19991779,-0.1744826,-0.85034508,-0.17619589,-0.85064024,-0.33742395,0.35624477
8712562500,-0.44999999,-0.19962889,-0.17516249,-0.85135138,-0.17735639,-0.85011065,-0.33684015,0.35752609
8715125000,-0.44994289,-0.1991592,-0.1746745,-0.85225695,-0.17749476,-0.85181588,-0.33665156,0.35861418
8717687500,-0.44963914,-0.20001514,-0.17423567,-0.85207576,-0.17884304,-0.85223621,-0.33787709,0.35819152
8720250000,-0.44945344,-0.20086539,-0.17407319,-0.85252947,-0.17684928,-0.85056078,-0.33821553,0.35808024
8722812500,-0.44747883,-0.19995476,-0.17631207,-0.85265344,-0.1787308,-0.84894764,-0.3351045,0.35770756
8725375000,-0.4489921,-0.19977124,-0.17904143,-0.85285115,-0.17963538,-0.8509115,-0.33550775,0.358511
8727937500,-0.45065114,-0.1993469,-0.17994672,-0.85295814,-0.18259281,-0.85075408,-0.33418968,0.36036959
8730500000,-0.44936416,-0.19834587,-0.18091467,-0.85177493,-0.18187739,-0.85065109,-0.33387709,0.36001351
8733062500,-0.451704,-0.20004071,-0.1800797,-0.85266328,-0.18272257,-0.85233176,-0.33362547,0.36038545
8735625000,-0.4489902,-0.19832008,-0.18131362,-0.85143477,-0.18210438,-0.85228193,-0.33394468,0.35951874
8738187500,-0.4494136,-0.19873787,-0.18040636,-0.85081846,-0.18411887,-0.85018629,-0.33242911,0.35919353
8740750000,-0.4525792,-0.19870026,-0.18537907,-0.84996164,-0.18527049,-0.85056186,-0.33182225,0.3618235
8743312500,-0.44749665,-0.19931738,-0.18280047,-0.85028601,-0.18196298,-0.85057741,-0.33173189,0.36112908
8745875000,-0.44817051,-0.19763027,-0.18245099,-0.85165578,-0.18239081,-0.85170615,-0.33094126,0.36097986
8748437500,-0.45003575,-0.19982195,-0.18452415,-0.85383159,-0.1892105,-0.85186732,-0.33148852,0.36244977
8751000000,-0.44861415,-0.19758618,-0.18682559,-0.85089177,-0.18546948,-0.85154033,-0.33124441,0.36261222
8753562500,-0.44919768,-0.19723892,-0.18787289,-0.85055602,-0.18771164,-0.8508063,-0.32990742,0.36239296
8756125000,-0.44895121,-0.19724019,-0.18593013,-0.84924001,-0.18816938,-0.84970295,-0.32900703,0.36158347
8758687500,-0.44800147,-0.19686352,-0.186827,-0.84900355,-0.18910475,-0.84799767,-0.32862377,0.36328557
8761250000,-0.44792482,-0.19678712,-0.18901838,-0.84753215,-0.19129135,-0.84952313,-0.32820949,0.36387035
8763812500,-0.4488759,-0.19640563,-0.19399878,-0.84888059,-0.19319569,-0.84785402,-0.32763463,0.36432076
8766375000,-0.44863051,-0.19598223,-0.18929112,-0.84840477,-0.19207008,-0.84862709,-0.32783687,0.36342719
8768937500,-0.44900683,-0.19596402,-0.19349235,-0.85268337,-0.19382027,-0.84769875,-0.32703525,0.36502841
8771500000,-0.44924018,-0.19542469,-0.19323832,-0.85132617,-0.19456683,-0.85008347,-0.32699272,0.36532962
