!CSV A.01.01
!Agilent Technologies,N5230C,MY49000690,A.09.42.22
!Agilent N5230C: A.09.42.22
!Date: Monday, April 10, 2017 10:52:05
!Source: Standard

BEGIN CH1_DATA
Freq(Hz),S11(REAL),S11(IMAG),S12(REAL),S12(IMAG),S21(REAL),S21(IMAG),S22(REAL),S22(IMAG)
8300000000,-0.00020589714,0.0001139156,0.50423384,-0.86095703,0.50170392,-0.86583471,-0.00021230358,0.0013029549
8302562500,-0.00049353944,0.00024860894,0.50378031,-0.86232924,0.50037241,-0.86742783,-0.00058461813,0.00086642097
8305125000,-0.00078518136,0.00022567852,0.50417519,-0.86501056,0.5006001,-0.86715233,-0.00059094897,0.00081857946
8307687500,-0.00072714925,-6.8032161e-005,0.50317508,-0.86548227,0.49795696,-0.8668837,-3.2815002e-005,0.00096299651
8310250000,-0.00021042807,0.00044447012,0.50293833,-0.86457044,0.49669206,-0.86726445,-0.0003943679,0.0008004476
8312812500,-0.00061012735,5.5628258e-005,0.50093967,-0.86540842,0.49675721,-0.86793834,-0.00015297685,0.0011501461
8315375000,-0.00088545424,0.00038859903,0.50103158,-0.86522937,0.49885783,-0.86887282,-0.00013010562,0.00097977405
8317937500,-0.0010114019,0.00019537676,0.50103277,-0.86659086,0.49541003,-0.86954814,-0.00012479776,0.00080966036
8320500000,-0.001434813,0.00019513359,0.50021207,-0.86670572,0.49766552,-0.87030315,-0.00014523158,0.00055739412
8323062500,-0.00041284261,1.7921244e-005,0.50001442,-0.86729604,0.49307412,-0.86981583,9.8454271e-005,0.00068720797
8325625000,-0.0014848758,5.2475654e-005,0.49921039,-0.86854118,0.49650025,-0.86797249,-0.00018278186,0.00066364516
8328187500,-0.00076733291,-2.6483294e-005,0.49805361,-0.86612219,0.49190104,-0.86867797,0.00031370745,0.00072589191
8330750000,-0.00069196272,9.7059448e-005,0.49530935,-0.86584842,0.49121964,-0.87094504,-0.00013036502,0.0010178601
8333312500,-0.00037562411,0.0004262102,0.48494771,-0.87490994,0.48115245,-0.88027132,0.00083379191,0.0014229842
8335875000,-0.0011380909,0.00027417101,0.49720046,-0.86949897,0.49061874,-0.87217259,-0.0002743027,0.001134019
8338437500,-0.0015228315,0.00051386387,0.49814257,-0.867504,0.49009299,-0.87189621,7.7877385e-006,0.0010175084
8341000000,-0.0010755145,2.6052699e-005,0.49570063,-0.86928743,0.48700699,-0.86996955,0.00037647504,0.00095640036
8343562500,-0.00088785245,0.00056027411,0.49399647,-0.8696273,0.48946166,-0.87519234,0.00019807644,0.0011202185
8346125000,-0.0011489408,0.0010234518,0.49719346,-0.87002647,0.48814014,-0.87358797,2.3753491e-005,0.0011386499
8348687500,-0.00071112928,0.00058600353,0.49327454,-0.87289798,0.4851585,-0.87289017,0.00042566707,0.0015319432
8351250000,-0.0010642739,0.00017773951,0.49240109,-0.86939442,0.48314276,-0.87663919,0.00038033599,0.00099239475
8353812500,-0.0012133421,0.00012515325,0.49166453,-0.86980551,0.4831652,-0.87239975,0.00035869103,0.00082151836
8356375000,-0.0013094199,0.00041478817,0.49043575,-0.87199736,0.4859201,-0.87102258,0.00058392965,0.001135458
8358937500,-0.0011751944,0.00038488751,0.48639971,-0.87138003,0.48484489,-0.87319225,0.00093705708,0.0013100679
8361500000,-0.0013164247,0.00033517851,0.4881146,-0.87175429,0.48432934,-0.87495118,0.00062682567,0.0011311645
8364062500,-0.00086680549,0.0006083973,0.48794723,-0.87234735,0.48297825,-0.87542611,0.00059508497,0.0014948838
8366625000,-0.0011603499,2.8933086e-005,0.48715073,-0.87117559,0.48080254,-0.87463623,0.00063074718,0.0013529145
8369187500,-0.00087634893,0.00073525187,0.48484585,-0.87246925,0.48329842,-0.87541127,0.00070034439,0.0013760497
8371750000,-0.00053493789,0.00052990502,0.48511815,-0.87474346,0.48420954,-0.87637919,0.00029390067,0.0017786307
8374312500,-0.0011302646,0.00022805091,0.48542532,-0.87630916,0.48216212,-0.87797725,0.00065364275,0.0018056609
8376875000,-0.00088096631,7.4860991e-006,0.48426124,-0.87903148,0.47992012,-0.87824774,0.00069376448,0.0018032404
8379437500,-0.00074048381,0.00027094377,0.48371804,-0.87812835,0.47834736,-0.87868172,0.00079648301,0.0018099957
8382000000,-0.0010582148,0.00040493443,0.4819873,-0.87688464,0.47719359,-0.87953675,0.00058642391,0.0013704213
8384562500,-0.0010452427,0.00015645324,0.48125866,-0.87774521,0.47681719,-0.88019961,0.00075112114,0.0010827874
8387125000,-0.00099188136,7.1011891e-005,0.47990701,-0.87699938,0.47781476,-0.87822652,0.00047401144,0.0014523326
8389687500,-0.0015927504,1.800151e-005,0.48089254,-0.87601143,0.47308567,-0.88114679,0.00053481228,0.0011661369
8392250000,-0.0010989677,6.1987434e-005,0.47992581,-0.87835139,0.47325909,-0.87886113,0.00038784093,0.0010623116
8394812500,-0.0010512167,-0.0001510921,0.47994074,-0.87982374,0.47375861,-0.88239318,0.00061749108,0.001334253
8397375000,-0.00088608376,-0.00027974922,0.47873726,-0.88022512,0.47411048,-0.88117903,0.00039457832,0.0010113704
8399937500,-0.00081207015,-0.00028904816,0.47623649,-0.87900954,0.47253746,-0.88054973,0.00016305086,0.00092771702
8402500000,-0.0010135992,-5.9973943e-005,0.47613731,-0.87923217,0.47074834,-0.88216597,0.00021690437,0.0011136897
8405062500,-0.0011219472,-0.0005560845,0.47311646,-0.88219756,0.47035375,-0.88086212,0.00042197577,0.001450116
8407625000,-0.00097083265,-0.0004109611,0.47484776,-0.88094491,0.47296256,-0.88310468,0.00042671262,0.00091109402
8410187500,-0.0010945905,-0.00049825647,0.47683358,-0.88171202,0.46963084,-0.88057333,-0.0001122184,0.00078033237
8412750000,-0.0012282893,-0.00083658018,0.4725686,-0.87943006,0.46913496,-0.88471377,0.00060332508,0.00061699323
8415312500,-0.0012572008,-0.0004966741,0.47300524,-0.88259214,0.46886787,-0.88568121,0.00054256245,0.00069494225
8417875000,-0.0014148416,-0.00077044551,0.4716436,-0.88287097,0.46905658,-0.88989854,0.00040975428,0.00027375991
8420437500,-0.00099809084,-0.00096349488,0.47176942,-0.88527513,0.46514088,-0.88627124,-0.00028949644,0.00032415122
8423000000,-0.0016502142,-0.00084128452,0.47026852,-0.88458067,0.46727455,-0.88847095,0.00032041527,0.00028288981
8425562500,-0.0014142218,-0.00076425151,0.4683896,-0.88587779,0.46821538,-0.88530964,0.00018985587,0.00045149194
8428125000,-0.0013680508,-0.00071911706,0.46925226,-0.88630271,0.46494094,-0.88615417,0.0005219857,0.000497311
8430687500,-0.0014994564,-0.00077143725,0.47150671,-0.87958848,0.46229529,-0.88445729,0.00021998033,-0.00012725724
8433250000,-0.0017432412,-0.00059199031,0.46570051,-0.88436002,0.4653908,-0.88779229,0.00016500901,0.00059010374
8435812500,-0.0013175986,-0.00067908247,0.46501127,-0.88516974,0.4616026,-0.88698369,0.00020895225,-9.8617798e-005
8438375000,-0.0014656864,-0.00078615412,0.46524706,-0.88456732,0.46044585,-0.88866562,0.00013533157,0.00022149198
8440937500,-0.0014289524,-0.00080261199,0.46722806,-0.8845408,0.4583807,-0.88729757,0.0004479647,4.9463019e-005
8443500000,-0.0013870028,-0.00063596928,0.46616325,-0.8860423,0.45871854,-0.89068222,0.0002118571,0.00036383717
8446062500,-0.0014120401,-0.00034272057,0.46435374,-0.88880932,0.45956972,-0.88807988,0.00029771085,0.00025152025
8448625000,-0.0014706184,-0.00037971119,0.4640677,-0.88983852,0.4593946,-0.88721246,0.00030778619,0.00025019949
8451187500,-0.0013529864,-0.00065418199,0.46211049,-0.88951677,0.45882192,-0.89011043,0.00069693831,0.00013325529
8453750000,-0.0011659632,-0.0007185954,0.46225569,-0.88761425,0.45882604,-0.89094776,0.00077631779,0.00041496966
8456312500,-0.0010526432,-0.0004166693,0.4610076,-0.88779211,0.45776924,-0.8889944,0.00064904225,3.5547491e-005
8458875000,-0.0012252813,-0.00048945547,0.45905325,-0.88738823,0.45807448,-0.89214623,0.00054021203,0.00016313352
8461437500,-0.0013077742,-0.000355261,0.45853552,-0.88826752,0.45435682,-0.89123935,0.00046721046,0.00046627261
8464000000,-0.0010403438,-0.00022064068,0.45792484,-0.89288521,0.4538388,-0.88801384,0.00077655958,0.00029522704
8466562500,-0.0013606214,-0.00014632265,0.45722955,-0.89084023,0.45079079,-0.89259815,0.00080629083,0.00035107616
8469125000,-0.0012603725,-0.00016349051,0.45734823,-0.88881701,0.4517132,-0.89005619,0.00069785333,0.00043580655
8471687500,-0.0010773586,-0.00026803635,0.45442989,-0.88896096,0.45080766,-0.89043927,0.00076541281,0.00025910436
8474250000,-0.0012747326,-0.00047388091,0.45408535,-0.89005882,0.44958442,-0.8953051,0.00085543765,0.00040625379
8476812500,-0.0011134741,-0.00045948281,0.45487469,-0.89281213,0.4511089,-0.89583844,0.00083187723,0.00042752599
8479375000,-0.0013476226,-4.3781696e-005,0.45566481,-0.89068311,0.4466747,-0.89414823,0.00081402238,0.00052903884
8481937500,-0.0009808233,-3.6737099e-005,0.45490676,-0.8907724,0.4477385,-0.89274502,0.00083305524,0.00063420512
8484500000,-0.0013373898,-0.00017271691,0.45174518,-0.89174968,0.44625318,-0.89421356,0.0011372189,0.00069589762
8487062500,-0.0012412341,-0.00020316141,0.45350301,-0.89187741,0.44699481,-0.89495188,0.001097881,0.0009348733
8489625000,-0.00090263376,-0.00045005209,0.45305923,-0.89551055,0.44814399,-0.89487994,0.0011921745,0.00054407021
8492187500,-0.00066429062,-0.00054162095,0.4501631,-0.89567906,0.44672456,-0.89474517,0.0011953547,0.00061761896
8494750000,-0.00041516867,-0.00046097778,0.45057034,-0.89398479,0.44460264,-0.89691156,0.000742317,0.00053095823
8497312500,-0.00050465058,-0.00072002789,0.44972059,-0.8957606,0.44641706,-0.8996405,0.00069804431,0.0006013625
8499875000,-0.00060091983,-0.00069445022,0.4467577,-0.89291149,0.44844866,-0.89946425,0.00056333747,0.00088072312
8502437500,-0.0007388317,-0.00057480362,0.44761768,-0.8938542,0.44457507,-0.89522648,0.00032495277,0.00069357397
8505000000,-0.00053624256,-0.00039418551,0.44801635,-0.89458001,0.44143316,-0.89695024,0.00088375376,0.00062998309
8507562500,-0.00054450217,-0.00082132674,0.44745776,-0.89873523,0.43970346,-0.89691216,0.0012004246,0.00060494721
8510125000,-0.00043781349,-0.0007516226,0.44670659,-0.89359009,0.43924978,-0.89840233,0.00080856209,0.00083028176
8512687500,-0.0010594557,-0.00095112115,0.44566271,-0.89668685,0.43888634,-0.89805305,0.0010299624,0.0010532258
8515250000,-0.00053852616,-0.0012190237,0.44273618,-0.89531344,0.44107655,-0.89864618,0.00036577909,0.0010230291
8517812500,-0.0012026269,-0.0011860481,0.44279289,-0.89794749,0.44054922,-0.90025926,0.00077149982,0.001031385
8520375000,-0.00050848309,-0.0013536364,0.44167128,-0.89857364,0.43846732,-0.90072536,0.00017417742,0.00098295871
8522937500,-0.00069450744,-0.0010066691,0.44161198,-0.89706963,0.43731031,-0.90015948,0.00053015456,0.00072388479
8525500000,-0.00089603954,-0.00093358435,0.4410857,-0.89849645,0.43571398,-0.9031117,0.0006873174,0.00059902988
8528062500,-0.00092881417,-0.0019513509,0.44095194,-0.89949644,0.43811819,-0.90008539,0.00097569922,0.0010533907
8530625000,-0.0006908853,-0.0011684407,0.44024533,-0.89695573,0.43601528,-0.90042973,0.00035383506,0.00086380861
8533187500,-0.00080000958,-0.0012218987,0.43994454,-0.9003523,0.43387666,-0.90109175,0.00051004498,0.0005378793
8535750000,-0.0010330422,-0.00098528643,0.43765798,-0.90042752,0.43533903,-0.90175676,0.00030780947,0.00027859362
8538312500,-0.0017379307,-0.0013975037,0.43734953,-0.9016549,0.43138266,-0.90575457,0.00044856619,0.00062117173
8540875000,-0.0014766719,-0.001028426,0.43588659,-0.89946628,0.42957747,-0.89882922,-4.1083826e-005,0.00035242131
8543437500,-0.0013226633,-0.00095462898,0.43607709,-0.90056098,0.43110925,-0.90322661,-5.812545e-005,0.00038378878
8546000000,-0.0015013778,-0.0014902675,0.43488875,-0.90088469,0.43151799,-0.90257424,0.00033267064,0.00023238632
8548562500,-0.0015411101,-0.00085004524,0.43222991,-0.8994298,0.42881727,-0.90209305,0.00040222472,0.00015239978
8551125000,-0.0014831782,-0.00088849926,0.43237534,-0.9008655,0.42871758,-0.90565401,0.00012557561,-0.00026170447
8553687500,-0.001426857,-0.0019258551,0.43691909,-0.90468895,0.42632568,-0.9072662,0.00036687363,0.00024481988
8556250000,-0.0013753962,-0.00091683533,0.43154356,-0.90538555,0.42610946,-0.90175915,0.00026100484,7.8318353e-006
8558812500,-0.0014659938,-0.0011126904,0.42935783,-0.90208989,0.42961311,-0.90501088,0.00049345638,-5.5572959e-006
8561375000,-0.001491497,-0.0012390604,0.4301385,-0.90148044,0.42541906,-0.90326124,0.00046654712,0.00016326879
8563937500,-0.0012861283,-0.0009397628,0.4282988,-0.90575963,0.42526367,-0.90490681,0.00021003433,0.00014355521
8566500000,-0.0015079108,-0.0013236756,0.42942187,-0.9056018,0.42382306,-0.90768617,0.00040099054,0.00011868605
8569062500,-0.0012758595,-0.0013205068,0.43030494,-0.90553921,0.42217439,-0.90709215,0.0002821275,-3.8458678e-005
8571625000,-0.0011757403,-0.0013807518,0.42684543,-0.9024387,0.42202398,-0.90665394,0.00016676358,-0.00026455772
8574187500,-0.0012745112,-0.0011368268,0.42777613,-0.90434951,0.42153069,-0.90482783,0.00031843284,-0.00029993893
8576750000,-0.0012945702,-0.00093626056,0.4248482,-0.90429837,0.42021316,-0.90553325,0.00033345495,-0.00021208312
8579312500,-0.0012180022,-0.0010858327,0.42455304,-0.90386337,0.4203378,-0.90817928,0.00060326606,-0.00048315997
8581875000,-0.0014546305,-0.00099787163,0.42153621,-0.905101,0.4210026,-0.90707749,0.00078050193,-0.00057399203
8584437500,-0.0013364069,-0.0010390352,0.42000815,-0.90763545,0.4185321,-0.90646321,0.00060957822,-0.00035264218
8587000000,-0.001009876,-0.0010050824,0.41926271,-0.90488786,0.41911361,-0.90774524,0.00041591906,-0.00033344579
8589562500,-0.00092059921,-0.0011090341,0.42170683,-0.9034065,0.41873971,-0.90890074,0.00027056129,-0.00033815292
8592125000,-0.00074743392,-0.0011637135,0.42072809,-0.90713382,0.41795558,-0.90983129,0.0003067987,-0.0002575322
8594687500,-0.00091897207,-0.0012578575,0.42211974,-0.9089905,0.41681248,-0.90879148,0.00038735004,-0.00039695957
8597250000,-0.00058063067,-0.00085235736,0.41953883,-0.90750915,0.41660166,-0.90949178,0.00050430943,-0.00070293597
8599812500,-0.00046156204,-0.00082827359,0.41945553,-0.90840733,0.41491529,-0.91048986,0.00038869356,-0.00053301861
8602375000,-0.00037693762,-0.0015145551,0.41773704,-0.91033816,0.41326275,-0.9112556,0.00035478696,-0.00048056155
8604937500,-0.00042306483,-0.001469087,0.4164874,-0.90914357,0.41583151,-0.91147089,0.00074221124,-0.00025811247
8607500000,-0.00024195462,-0.0012660632,0.4158074,-0.90931129,0.41548303,-0.91293377,0.0008006242,-0.00028931341
8610062500,-0.0003178081,-0.001307251,0.41703647,-0.90751672,0.41326183,-0.91341859,0.00046986705,-0.00031528412
8612625000,-0.00063332525,-0.0012465602,0.41508421,-0.90984875,0.41187376,-0.9128266,0.00038220407,-3.4908968e-005
8615187500,-0.00036740265,-0.00090999977,0.4135915,-0.91074783,0.41089275,-0.9129355,0.00041540083,-0.00031245273
8617750000,-0.00043801457,-0.0010417146,0.41413119,-0.91196537,0.41001508,-0.91228962,0.00068959966,-0.00025004457
8620312500,-0.00088549976,-0.0016009078,0.4125962,-0.91287613,0.40906054,-0.91096407,0.00062800164,0.00023568246
8622875000,-0.00068369583,-0.0017741857,0.41627213,-0.91229081,0.40939102,-0.91170478,0.00053403515,0.00043038244
8625437500,-0.00022130919,-0.0015002762,0.41114989,-0.91344678,0.40585697,-0.91165811,0.00021839901,4.3786025e-005
8628000000,-0.00067688606,-0.0015516739,0.41164151,-0.91176659,0.40485564,-0.91143984,0.00041711569,0.0003919662
8630562500,-0.00031670756,-0.0011625644,0.41034588,-0.91194105,0.40692073,-0.91558856,0.00051215431,-0.00021835322
8633125000,-0.00041362538,-0.0013503635,0.4112758,-0.91451359,0.40316358,-0.91535389,3.5763962e-005,-9.1358394e-005
8635687500,-0.00057497749,-0.0013512293,0.40885878,-0.91165382,0.40489188,-0.91903877,0.00030828998,-7.1194459e-005
8638250000,-0.0004455907,-0.0015455018,0.40462148,-0.91091144,0.40319684,-0.91362542,0.00083169003,0.00010899212
8640812500,-0.00040962841,-0.00086422724,0.40991563,-0.91646689,0.4026792,-0.91950786,0.00027747671,0.00019248435
8643375000,-0.00065168913,-0.0013712697,0.40729979,-0.91183943,0.4028081,-0.9177739,-0.00034046549,-6.7895649e-005
8645937500,-0.00016151232,-0.0016331965,0.40846393,-0.91475523,0.40079194,-0.91540629,0.00037119861,0.00052337337
8648500000,-0.00038544415,-0.001666132,0.40679741,-0.9171198,0.40035245,-0.91853076,0.00039058772,0.00015219065
8651062500,-0.00053757109,-0.0013615725,0.40311658,-0.91398573,0.39878505,-0.91524279,2.9167015e-005,3.3525204e-005
8653625000,-0.00073329458,-0.0013808405,0.40386081,-0.91309369,0.40001136,-0.9148429,2.4458563e-005,-0.00025566688
8656187500,-0.0006016643,-0.0015716687,0.40241787,-0.91415226,0.40049818,-0.91782862,0.00013747261,-0.00040722365
8658750000,-0.00053019787,-0.0014446882,0.40294728,-0.91845274,0.39922065,-0.9157601,0.00018798561,-0.00016832598
8661312500,-0.00033240201,-0.0013433072,0.40273517,-0.91728687,0.3970421,-0.91734946,-0.00018420693,-0.00012126059
8663875000,-0.00046103515,-0.0012123787,0.40344051,-0.91833258,0.39576516,-0.91965932,-0.00023002447,-0.00029483408
8666437500,-0.00062700699,-0.0013965649,0.39916462,-0.91797179,0.39597818,-0.9184438,7.5746917e-005,-0.0004110352
8669000000,-0.00077627786,-0.001516782,0.39723685,-0.91746747,0.39338398,-0.91655678,3.7806633e-006,-5.9070804e-005
8671562500,-0.00065285689,-0.0011308239,0.39614889,-0.91816485,0.3951273,-0.92072487,7.6734206e-005,-0.00063203246
8674125000,-0.00050400844,-0.0010527335,0.39623302,-0.91810679,0.39363664,-0.92052805,-7.9518068e-005,-0.00044452038
8676687500,-0.00085188152,-0.0013621912,0.39810574,-0.92047751,0.39046204,-0.92102039,-1.8746521e-005,-0.00065755675
8679250000,-0.00068436086,-0.0014881274,0.3949649,-0.92106795,0.39398494,-0.92044467,-0.0001357562,-0.00048789268
8681812500,-0.00042113999,-0.0015550854,0.39614338,-0.91946262,0.39314672,-0.92049122,-9.8708893e-005,-0.00060692383
8684375000,-0.00011915193,-0.0012549906,0.39453417,-0.91989058,0.39457452,-0.91884494,-0.00034113353,-0.001031668
8686937500,-0.00030677154,-0.0012280224,0.39464688,-0.91955042,0.39189887,-0.92194873,-0.00013937232,-0.0011601824
8689500000,-0.00012377447,-0.0011795699,0.39443308,-0.92055023,0.39300108,-0.9224031,-0.0002541834,-0.00095622946
8692062500,-0.00024550236,-0.00088701322,0.39211786,-0.919559,0.39006004,-0.92196482,-8.6963875e-005,-0.00094201358
8694625000,-0.0004291315,-0.00082641147,0.39006826,-0.92172348,0.38819006,-0.92144996,-0.00047688169,-0.00093742233
8697187500,-0.00061308278,-0.001217199,0.39380783,-0.9211216,0.38757399,-0.92456156,-0.00028348379,-0.0013775884
8699750000,-0.00048126618,-0.00059328874,0.38836339,-0.91941267,0.38830686,-0.92081374,-0.0006825063,-0.0012906826
8702312500,-0.00057315925,-0.0016730581,0.39356992,-0.92385012,0.38725761,-0.92440033,0.0005244342,-0.001037902
8704875000,-0.00022682849,-0.0019300863,0.39032558,-0.92108715,0.38452193,-0.92759615,0.0011591314,-0.00080398837
8707437500,-0.00054393098,-0.0011228828,0.38778758,-0.92104232,0.38680109,-0.92383569,8.1384605e-005,-0.00078046095
8710000000,-0.00026528537,-0.0013116648,0.38915807,-0.9231292,0.38461512,-0.92433959,0.00037051798,-0.00067445246
8712562500,-0.00048100707,-0.0015137483,0.38632226,-0.92335606,0.37776056,-0.9247365,0.00067436235,-0.0012645193
8715125000,-0.00067549059,-0.0011071863,0.38472801,-0.92141229,0.38304621,-0.922975,0.00012862461,-0.0011121578
8717687500,-0.00017201521,-0.0012856008,0.38715568,-0.92523402,0.37830496,-0.92509288,0.00073260849,-0.0010654324
8720250000,-0.00033855025,-0.0015085868,0.38714737,-0.92390299,0.38380319,-0.9246102,0.00020176487,-0.00064068986
8722812500,-5.4710446e-005,-0.0014471102,0.3836742,-0.92118973,0.37897336,-0.92556673,0.00049194845,-0.0013569511
8725375000,-0.00034782215,-0.00098172401,0.38182136,-0.9264037,0.37913245,-0.92644083,0.00057458144,-0.0015675151
8727937500,-0.00035476743,-0.0012412755,0.38266891,-0.9269051,0.37638626,-0.92828643,0.00046988332,-0.0016819906
8730500000,-0.00021105037,-0.0011864108,0.37915701,-0.92575544,0.37710193,-0.92676884,0.00023297874,-0.0013202442
8733062500,-0.00061599223,-0.0014412869,0.38316411,-0.92648911,0.37709311,-0.92638469,0.00023488209,-0.00063986372
8735625000,8.8282257e-005,-0.0011509164,0.37946266,-0.92525393,0.37755761,-0.92837226,0.00034298978,-0.0010664511
8738187500,-0.00039647563,-0.001205554,0.37862736,-0.9236666,0.3761439,-0.92727774,0.00030600885,-0.0010899942
