!CSV A.01.01
!Agilent Technologies,N5230C,MY49000690,A.09.42.22
!Agilent N5230C: A.09.42.22
!Date: Monday, April 10, 2017 10:36:31
!Source: Standard

BEGIN CH1_DATA
Freq(Hz),S11(REAL),S11(IMAG),S12(REAL),S12(IMAG),S21(REAL),S21(IMAG),S22(REAL),S22(IMAG)
8300000000,-0.57371104,-0.04910782,-0.16077228,-0.80112988,-0.16467431,-0.79738474,-0.51102835,0.26980582
8302562500,-0.57311183,-0.052703105,-0.1640604,-0.8010354,-0.16277514,-0.80115449,-0.51036245,0.2712115
8305125000,-0.5766899,-0.050136864,-0.1619062,-0.80114573,-0.16700378,-0.80052912,-0.51050252,0.27060398
8307687500,-0.57583302,-0.050263517,-0.1622892,-0.80119824,-0.16823061,-0.80162978,-0.51050603,0.27129844
8310250000,-0.57312542,-0.049918719,-0.16188329,-0.80126005,-0.16545953,-0.79975933,-0.51073062,0.27097657
8312812500,-0.5724473,-0.049574688,-0.16072804,-0.80188715,-0.1640275,-0.79792953,-0.51102185,0.27059737
8315375000,-0.57457149,-0.049249455,-0.16369417,-0.80228484,-0.1685728,-0.80095649,-0.50838047,0.27187923
8317937500,-0.57328308,-0.048947517,-0.16428022,-0.80157638,-0.16829525,-0.79944718,-0.50820297,0.27233145
8320500000,-0.57333064,-0.048864122,-0.16464889,-0.80087036,-0.1680916,-0.80047297,-0.50725353,0.27255681
8323062500,-0.57363015,-0.04790872,-0.16668035,-0.8008309,-0.17117637,-0.80039716,-0.50769508,0.27261221
8325625000,-0.57316387,-0.048615675,-0.16581094,-0.80272126,-0.16902716,-0.80308592,-0.50878167,0.2745111
8328187500,-0.57234311,-0.048000798,-0.16687676,-0.80306673,-0.1696889,-0.8015756,-0.50798166,0.27496293
8330750000,-0.57267177,-0.047419999,-0.16533852,-0.79947096,-0.17235586,-0.8001141,-0.50580668,0.27337232
8333312500,-0.57424402,-0.040498707,-0.18079749,-0.80088311,-0.18504097,-0.79978025,-0.49956679,0.28321949
8335875000,-0.57204634,-0.047243975,-0.16787194,-0.8015213,-0.17272109,-0.79911572,-0.50419873,0.2743139
8338437500,-0.57112217,-0.047200099,-0.16757379,-0.80231827,-0.17153431,-0.80208242,-0.5057478,0.2762934
8341000000,-0.57076269,-0.047040734,-0.16963354,-0.80111247,-0.17389046,-0.80048472,-0.50349963,0.27502957
8343562500,-0.57180631,-0.046774749,-0.16898949,-0.80094558,-0.1742617,-0.80299765,-0.50338423,0.2755802
8346125000,-0.57252491,-0.046265114,-0.17079185,-0.80173296,-0.17463218,-0.8023597,-0.50097483,0.27578411
8348687500,-0.57227623,-0.043693937,-0.17194435,-0.80318815,-0.17545627,-0.80045271,-0.5011844,0.27680132
8351250000,-0.57208419,-0.040422283,-0.17244107,-0.80170894,-0.17862342,-0.80057985,-0.50031549,0.27756521
8353812500,-0.57049108,-0.042480022,-0.17178759,-0.80278105,-0.17704336,-0.80078048,-0.50123751,0.27801087
8356375000,-0.56895459,-0.043492019,-0.17258617,-0.8020075,-0.17505157,-0.80084091,-0.50209171,0.27879852
8358937500,-0.57009202,-0.042818729,-0.17350963,-0.80120635,-0.17751014,-0.80012524,-0.49888912,0.27846342
8361500000,-0.57066536,-0.041750614,-0.17441523,-0.80287123,-0.17924696,-0.80197185,-0.49921486,0.27985194
8364062500,-0.56873596,-0.042334113,-0.17449626,-0.80194235,-0.17909515,-0.80119109,-0.4985075,0.27933672
8366625000,-0.56929493,-0.041514952,-0.1750984,-0.80249065,-0.18005893,-0.80158049,-0.49881425,0.27988309
8369187500,-0.56855971,-0.041423198,-0.17713723,-0.80202794,-0.17912875,-0.80297804,-0.49839699,0.27951297
8371750000,-0.56963956,-0.04124593,-0.1775445,-0.8022694,-0.18002425,-0.80368727,-0.49842104,0.28015405
8374312500,-0.57018435,-0.041020896,-0.17890981,-0.80508411,-0.18122107,-0.80221456,-0.49831614,0.28149402
8376875000,-0.57124007,-0.040069871,-0.18072285,-0.80456197,-0.1836855,-0.8022117,-0.49715042,0.28237155
8379437500,-0.57020426,-0.039763041,-0.18063675,-0.80522412,-0.18495584,-0.80167758,-0.49709582,0.2832863
8382000000,-0.56946075,-0.039560337,-0.17963541,-0.80255163,-0.18543585,-0.80206859,-0.49708918,0.28245687
8384562500,-0.56945437,-0.039278056,-0.18137835,-0.80452555,-0.18562175,-0.802607,-0.49731591,0.28332993
8387125000,-0.56934822,-0.038619611,-0.18141799,-0.80236059,-0.1863157,-0.8012991,-0.49598515,0.28203046
8389687500,-0.56866747,-0.039896339,-0.18185049,-0.80163181,-0.18503141,-0.80221301,-0.49476266,0.28255886
8392250000,-0.56858367,-0.038167946,-0.18418154,-0.80429965,-0.18797325,-0.79952818,-0.49447161,0.28521311
8394812500,-0.56821465,-0.039322749,-0.18696576,-0.80458415,-0.18615498,-0.80160552,-0.49426016,0.2863903
8397375000,-0.56810296,-0.03828758,-0.18531907,-0.80382413,-0.18834275,-0.80133057,-0.49453536,0.28568661
8399937500,-0.57004505,-0.037275571,-0.187602,-0.80520779,-0.19151424,-0.80335861,-0.49439207,0.28654256
8402500000,-0.56751895,-0.039116405,-0.18560657,-0.80476201,-0.18865629,-0.80157566,-0.49442536,0.28519163
8405062500,-0.56809175,-0.039995048,-0.18747999,-0.80403191,-0.18852372,-0.80137646,-0.49156755,0.28628296
8407625000,-0.56701851,-0.0394237,-0.18673374,-0.8060168,-0.18724149,-0.80004406,-0.49407771,0.28577235
8410187500,-0.56701493,-0.037597887,-0.18663789,-0.80179459,-0.1920715,-0.8009696,-0.49215621,0.28491625
8412750000,-0.56809229,-0.039232794,-0.18752593,-0.80539721,-0.19149607,-0.80159378,-0.49262437,0.28673777
8415312500,-0.56842673,-0.036990725,-0.19094911,-0.80412483,-0.19278187,-0.80303061,-0.49074429,0.2875044
8417875000,-0.56854558,-0.0365679,-0.18857908,-0.80257827,-0.19486527,-0.80353498,-0.4910199,0.28594154
8420437500,-0.56770015,-0.036587883,-0.18995114,-0.80193418,-0.1956743,-0.80202669,-0.48981327,0.28715572
8423000000,-0.56807578,-0.036595467,-0.19185588,-0.80273831,-0.19483458,-0.8025043,-0.48905227,0.28810018
8425562500,-0.56567687,-0.035966672,-0.19325356,-0.80225486,-0.19357021,-0.80259544,-0.49020323,0.2881619
8428125000,-0.56632137,-0.036365654,-0.19241524,-0.80578965,-0.19557777,-0.80217475,-0.49017921,0.28886923
8430687500,-0.56504792,-0.036728133,-0.19002555,-0.80156475,-0.19551961,-0.80086386,-0.48784399,0.2873632
8433250000,-0.56518912,-0.035794053,-0.19368824,-0.8017444,-0.19543031,-0.80290174,-0.48820648,0.28924337
8435812500,-0.56639379,-0.034870684,-0.1962238,-0.80101252,-0.1975396,-0.80260098,-0.48629141,0.28964922
8438375000,-0.56468308,-0.034035284,-0.1951527,-0.79983592,-0.19962683,-0.80167204,-0.48557115,0.29040182
8440937500,-0.56472164,-0.03529853,-0.19415352,-0.80233985,-0.19959378,-0.80087876,-0.48512021,0.28995812
8443500000,-0.56345803,-0.035052489,-0.19480993,-0.80245548,-0.1996529,-0.80114728,-0.48558733,0.29101875
8446062500,-0.56441116,-0.033518855,-0.19643344,-0.80589557,-0.19994503,-0.80159885,-0.4866164,0.29112366
8448625000,-0.56452465,-0.033780459,-0.1976144,-0.80436194,-0.19958486,-0.80055493,-0.48437729,0.29098332
8451187500,-0.56599611,-0.03373966,-0.19940585,-0.80259579,-0.2014818,-0.80380148,-0.48346901,0.29207987
8453750000,-0.56760937,-0.032600723,-0.1998437,-0.80402213,-0.20329855,-0.80526853,-0.48327687,0.29178318
8456312500,-0.56424123,-0.032694101,-0.20049293,-0.80133998,-0.20191808,-0.80114084,-0.48109081,0.29147345
8458875000,-0.56395471,-0.03181098,-0.20105396,-0.79794943,-0.2038613,-0.80254698,-0.47962487,0.29255459
8461437500,-0.56158215,-0.032403216,-0.19981654,-0.80140817,-0.20326862,-0.80002177,-0.48082653,0.29295152
8464000000,-0.56531328,-0.033172533,-0.19825427,-0.80410284,-0.2054389,-0.80472857,-0.48153451,0.29332405
8466562500,-0.56238103,-0.031817511,-0.20228659,-0.80368751,-0.20558721,-0.80036873,-0.48025176,0.29471233
8469125000,-0.56266356,-0.031374317,-0.20217554,-0.80368876,-0.2058911,-0.80076468,-0.48034769,0.29401129
8471687500,-0.56358278,-0.031034781,-0.20549984,-0.80296814,-0.20830929,-0.80218399,-0.47866163,0.29639882
8474250000,-0.56119466,-0.030760223,-0.20435375,-0.80243725,-0.20743482,-0.79957926,-0.47818223,0.29556808
8476812500,-0.56077862,-0.029578803,-0.20444998,-0.80165333,-0.20729333,-0.80003494,-0.47832382,0.29459271
8479375000,-0.56114268,-0.030145399,-0.2048995,-0.80206913,-0.2078332,-0.80165559,-0.47835079,0.29582492
8481937500,-0.56002986,-0.028899504,-0.20271863,-0.80016023,-0.21018428,-0.79958802,-0.47630221,0.29486108
8484500000,-0.56141514,-0.031493012,-0.20832382,-0.80218238,-0.20777071,-0.80160511,-0.47576308,0.29791719
8487062500,-0.56150717,-0.029725831,-0.20729069,-0.80232584,-0.2106366,-0.80217046,-0.47591195,0.29786706
8489625000,-0.56177932,-0.029614842,-0.20705537,-0.80302191,-0.2103247,-0.80213702,-0.47601426,0.29702154
8492187500,-0.56142074,-0.028994074,-0.20763701,-0.80416924,-0.21278602,-0.80038214,-0.47551453,0.29767346
8494750000,-0.56126291,-0.028473375,-0.21150902,-0.80398691,-0.21373691,-0.7999633,-0.47486567,0.29992446
8497312500,-0.56150985,-0.027462767,-0.21140838,-0.8029905,-0.21396272,-0.80254471,-0.47512442,0.2992945
8499875000,-0.56105399,-0.02806964,-0.21069114,-0.80151594,-0.21410736,-0.80418336,-0.47525594,0.29927075
8502437500,-0.55982488,-0.027454806,-0.21229167,-0.80179852,-0.21401389,-0.80189717,-0.47486314,0.30032098
8505000000,-0.55961883,-0.026412264,-0.21220461,-0.80275184,-0.21680446,-0.8000555,-0.47335753,0.29992133
8507562500,-0.56037247,-0.027504314,-0.21362346,-0.80426997,-0.21497503,-0.80096173,-0.47253945,0.30017176
8510125000,-0.55913472,-0.02657767,-0.21260843,-0.8025381,-0.21871655,-0.80049276,-0.47220284,0.30082738
8512687500,-0.55952865,-0.025895633,-0.21280545,-0.80231041,-0.21869856,-0.80002367,-0.4714056,0.30046257
8515250000,-0.55917335,-0.026948664,-0.21543792,-0.79972965,-0.21545422,-0.80090809,-0.47041795,0.3016656
8517812500,-0.55961192,-0.026414454,-0.21590111,-0.80208075,-0.2165343,-0.80147958,-0.47116274,0.30179346
8520375000,-0.55930018,-0.024447236,-0.21742661,-0.8013711,-0.21977396,-0.80200058,-0.47110286,0.30252153
8522937500,-0.55842656,-0.024226816,-0.21656792,-0.80136931,-0.22166447,-0.80208629,-0.47077057,0.30319181
8525500000,-0.55961841,-0.024189329,-0.2166725,-0.80141097,-0.22221419,-0.80308789,-0.46958679,0.30274326
8528062500,-0.5599879,-0.026802324,-0.21980865,-0.80469048,-0.21588278,-0.80027467,-0.47119063,0.30282146
8530625000,-0.55729765,-0.025782818,-0.21892214,-0.80217499,-0.21885234,-0.79916489,-0.46989653,0.30397823
8533187500,-0.55778909,-0.021995362,-0.21924537,-0.80398321,-0.22538863,-0.79715937,-0.46928063,0.30243593
8535750000,-0.55894619,-0.022926258,-0.22116365,-0.80179816,-0.22401172,-0.80141097,-0.46764281,0.30447111
8538312500,-0.55699539,-0.022931715,-0.21906261,-0.80112785,-0.22261746,-0.80039549,-0.46879366,0.30347702
8540875000,-0.55671966,-0.023587011,-0.22053698,-0.80199915,-0.22215137,-0.79864383,-0.46809891,0.30376908
8543437500,-0.55559295,-0.023567189,-0.22078709,-0.79856539,-0.22340465,-0.79831064,-0.46565932,0.30462852
8546000000,-0.55967313,-0.022825276,-0.22293423,-0.80135268,-0.2246445,-0.80221063,-0.46572348,0.30478743
8548562500,-0.55619949,-0.020091398,-0.22244275,-0.79993844,-0.22681549,-0.80146724,-0.46692878,0.30552855
8551125000,-0.55716628,-0.021359216,-0.22379754,-0.80171698,-0.22616312,-0.80235291,-0.4671739,0.30566874
8553687500,-0.55718452,-0.02047934,-0.2231735,-0.79851389,-0.22825083,-0.80105889,-0.46401471,0.30540395
8556250000,-0.55630434,-0.020817088,-0.22587654,-0.8016178,-0.22771794,-0.79970109,-0.46421197,0.306059
8558812500,-0.55586731,-0.019776657,-0.22533502,-0.79877311,-0.22847606,-0.79958963,-0.46302685,0.30579692
8561375000,-0.55433047,-0.019599184,-0.22546235,-0.80088329,-0.22876687,-0.79849184,-0.46380255,0.3060675
8563937500,-0.55457127,-0.018641893,-0.22762339,-0.80120456,-0.23012088,-0.79973871,-0.4641411,0.30733752
8566500000,-0.55545622,-0.017693778,-0.22803037,-0.8018108,-0.23103179,-0.7982412,-0.46283963,0.30722344
8569062500,-0.55593753,-0.017110426,-0.22693434,-0.80336577,-0.2325405,-0.80032516,-0.46325451,0.30827519
8571625000,-0.55501395,-0.018537223,-0.22846594,-0.79855925,-0.23129432,-0.80052924,-0.46213406,0.3074193
8574187500,-0.55524236,-0.018035883,-0.22914252,-0.80020976,-0.23186371,-0.80060136,-0.46178743,0.3077603
8576750000,-0.55331278,-0.016958652,-0.22930066,-0.80036807,-0.2338533,-0.7992022,-0.46101177,0.30938542
8579312500,-0.55442709,-0.018079361,-0.23006544,-0.79935056,-0.23521823,-0.80044949,-0.46072516,0.30887166
8581875000,-0.55389655,-0.01730594,-0.23064268,-0.79907286,-0.23450617,-0.80102938,-0.46009916,0.30884764
8584437500,-0.5539934,-0.016797431,-0.23347323,-0.79905546,-0.23492406,-0.79926288,-0.45872834,0.30844876
8587000000,-0.55366564,-0.016963018,-0.23198119,-0.79851484,-0.23562178,-0.79880214,-0.4566004,0.30851489
8589562500,-0.55376357,-0.017235519,-0.23151645,-0.79946369,-0.23730351,-0.7981897,-0.45858985,0.30859157
8592125000,-0.55369192,-0.016208017,-0.23550969,-0.80030626,-0.23746864,-0.80120897,-0.45802143,0.31173247
8594687500,-0.5537225,-0.016670557,-0.23299262,-0.8017776,-0.23476805,-0.79805475,-0.45842558,0.30981785
8597250000,-0.55247241,-0.016437087,-0.2338022,-0.80057192,-0.23785515,-0.79681945,-0.45740339,0.31002885
8599812500,-0.55315799,-0.015994297,-0.23482177,-0.80195129,-0.2394461,-0.80073732,-0.45771962,0.31080988
8602375000,-0.55415648,-0.016088283,-0.23853603,-0.80104834,-0.24042876,-0.80163014,-0.45553845,0.31401625
8604937500,-0.55365008,-0.015319025,-0.23783119,-0.80154556,-0.24240257,-0.80291158,-0.45514953,0.3127144
8607500000,-0.55208987,-0.015209852,-0.23901998,-0.8009156,-0.24092561,-0.80024028,-0.45576504,0.31391546
8610062500,-0.55222458,-0.014788124,-0.23927818,-0.79863518,-0.24146369,-0.79941994,-0.45477286,0.31395802
8612625000,-0.55284148,-0.013584046,-0.23943177,-0.80022913,-0.2435609,-0.80063587,-0.45491382,0.3135443
8615187500,-0.55308479,-0.013822077,-0.24057724,-0.79846817,-0.24177353,-0.80080718,-0.4534809,0.31398571
8617750000,-0.55240327,-0.013649748,-0.24099329,-0.79999954,-0.24522993,-0.80090284,-0.45289725,0.31496176
8620312500,-0.55119723,-0.014079937,-0.24055929,-0.80003005,-0.24548055,-0.79683179,-0.45160103,0.31557858
8622875000,-0.55332339,-0.011822911,-0.23931025,-0.79705268,-0.24766634,-0.80000407,-0.45054358,0.31480041
8625437500,-0.55183351,-0.010653769,-0.24422286,-0.80137682,-0.2472827,-0.79842931,-0.45157024,0.31453452
8628000000,-0.55092227,-0.0099408329,-0.24144913,-0.8010788,-0.2481214,-0.79994786,-0.45144686,0.31556809
8630562500,-0.55111289,-0.011506287,-0.24512573,-0.79999954,-0.24870379,-0.80067962,-0.45067412,0.31738433
8633125000,-0.55178541,-0.012630732,-0.24688251,-0.79891533,-0.24779378,-0.79874688,-0.45060611,0.31730622
8635687500,-0.55132538,-0.010626879,-0.24215759,-0.80048162,-0.2507956,-0.79962927,-0.45061544,0.31759006
8638250000,-0.55090457,-0.012254259,-0.24745356,-0.79691005,-0.24779466,-0.79804552,-0.44859868,0.31697977
8640812500,-0.54872996,-0.011631179,-0.24589507,-0.79966587,-0.25206196,-0.79750448,-0.44890422,0.31788284
8643375000,-0.55048645,-0.009693292,-0.24771647,-0.7985571,-0.25060475,-0.79899997,-0.44904694,0.31877548
8645937500,-0.55098939,-0.012930869,-0.24658607,-0.79945946,-0.25193593,-0.79768085,-0.44848233,0.31807977
8648500000,-0.55136812,-0.011581242,-0.24837123,-0.80178016,-0.25337636,-0.79890478,-0.44715375,0.31808826
8651062500,-0.54710293,-0.010654735,-0.24881862,-0.79860598,-0.25184441,-0.79697543,-0.44758126,0.31822851
8653625000,-0.54853326,-0.0095389616,-0.24957366,-0.79763865,-0.25171283,-0.79686928,-0.44709,0.31927833
8656187500,-0.54776931,-0.010256686,-0.25125438,-0.79847217,-0.25311497,-0.79928035,-0.44655848,0.3201957
8658750000,-0.54927301,-0.0084454715,-0.25089937,-0.80019891,-0.25329763,-0.79614234,-0.44704217,0.31874701
8661312500,-0.54891115,-0.0086145429,-0.25124818,-0.79888129,-0.25597107,-0.79674512,-0.44510725,0.31971517
8663875000,-0.55011719,-0.0079909787,-0.25185654,-0.80029446,-0.25653505,-0.79777259,-0.44577029,0.32052043
8666437500,-0.54874039,-0.0074081612,-0.25524029,-0.79806924,-0.25548109,-0.79709888,-0.44472989,0.32188565
8669000000,-0.54801053,-0.0064709927,-0.25310764,-0.79755145,-0.25642517,-0.79158795,-0.4428758,0.31693056
8671562500,-0.54765135,-0.0061496468,-0.2566891,-0.79522485,-0.25745878,-0.79761696,-0.44288808,0.32237598
8674125000,-0.54793954,-0.0059799436,-0.25568059,-0.79654825,-0.26060247,-0.79725617,-0.44220763,0.32148623
8676687500,-0.54872239,-0.0061280178,-0.25536501,-0.80036747,-0.25922379,-0.79926008,-0.4432897,0.32153618
8679250000,-0.54708946,-0.005879085,-0.25647905,-0.79877317,-0.25938272,-0.7963115,-0.44302225,0.32105193
8681812500,-0.54817128,-0.0061277002,-0.25523624,-0.79885411,-0.25644565,-0.79889423,-0.4421998,0.31995463
8684375000,-0.5481922,-0.00491072,-0.25603405,-0.79713589,-0.26024562,-0.79868317,-0.44022968,0.32106423
8686937500,-0.54746878,-0.0059474614,-0.25489801,-0.79860651,-0.25870219,-0.79532266,-0.44039109,0.32044554
8689500000,-0.54699737,-0.0047131469,-0.25859082,-0.80006576,-0.26148847,-0.79777992,-0.4410921,0.32121134
8692062500,-0.54607099,-0.0036122417,-0.25885314,-0.79905331,-0.26375598,-0.79532361,-0.44072121,0.32165474
8694625000,-0.54523683,-0.003204722,-0.25881186,-0.80020732,-0.2666415,-0.79379767,-0.44007826,0.32155511
8697187500,-0.54703009,-0.002809511,-0.2578159,-0.79780251,-0.26411897,-0.7985087,-0.43944564,0.32263288
8699750000,-0.54571569,-0.0025362321,-0.25937784,-0.79663849,-0.26561776,-0.79791164,-0.43987319,0.32332599
8702312500,-0.54628241,-0.0043922798,-0.26180843,-0.79748625,-0.26398256,-0.79703426,-0.43816605,0.32389289
8704875000,-0.54556882,-0.003590574,-0.26474491,-0.79775,-0.26631147,-0.79678017,-0.43761733,0.32369667
8707437500,-0.54552156,-0.002360251,-0.26242357,-0.79816842,-0.26681358,-0.79634041,-0.43671146,0.32412905
8710000000,-0.54462266,-0.0016941354,-0.264155,-0.79947978,-0.26601928,-0.79513192,-0.43630591,0.32489643
8712562500,-0.54487467,-0.0017731608,-0.2615042,-0.7986322,-0.2674351,-0.79479772,-0.43710655,0.32701978
8715125000,-0.54486775,-0.00060675974,-0.26527455,-0.79663479,-0.26809838,-0.79672128,-0.43643489,0.32489213
8717687500,-0.54620588,0.00042969969,-0.26520607,-0.79779619,-0.26937819,-0.79737586,-0.43614841,0.32539842
8720250000,-0.54247826,-0.00082313834,-0.26520193,-0.80009204,-0.26836121,-0.79591614,-0.43521088,0.32578048
8722812500,-0.54380774,-3.3375447e-005,-0.26616532,-0.79802942,-0.26946113,-0.79467368,-0.43377933,0.32559946
8725375000,-0.54412091,-0.00019976289,-0.26833284,-0.79914463,-0.27067277,-0.7970295,-0.43540663,0.32866982
8727937500,-0.54411316,-0.0011131396,-0.2692863,-0.79826289,-0.27295387,-0.79685074,-0.43478924,0.32870361
8730500000,-0.54378152,0.00032105879,-0.27088895,-0.79768294,-0.27282956,-0.79523492,-0.43181372,0.32749611
8733062500,-0.54738861,0.00026503438,-0.27034461,-0.798356,-0.27451578,-0.79591143,-0.4342708,0.32801291
8735625000,-0.54411978,0.0012047272,-0.27092254,-0.79681802,-0.27302274,-0.79640746,-0.43289897,0.32751995
8738187500,-0.54340667,0.0011333408,-0.2698589,-0.79473454,-0.27390918,-0.79502708,-0.42996433,0.3287465
8740750000,-0.54369855,0.00056201289,-0.27436116,-0.7964831,-0.2731849,-0.7982952,-0.43161368,0.32885087
8743312500,-0.54185045,-0.00069826655,-0.27240169,-0.79718381,-0.27264202,-0.79607379,-0.43182018,0.32845351
8745875000,-0.54413915,0.0011572043,-0.27206886,-0.79826969,-0.27664381,-0.79638499,-0.43108267,0.32842126
8748437500,-0.54394257,0.0011097505,-0.27457145,-0.79858845,-0.27927652,-0.79342633,-0.43091235,0.33171409
8751000000,-0.54225421,0.001335518,-0.275861,-0.79744899,-0.27713373,-0.7972374,-0.43132231,0.33081245
8753562500,-0.54279894,0.0028079231,-0.27465659,-0.79538113,-0.27974576,-0.79419929,-0.42817309,0.33033779
8756125000,-0.54185754,0.0024162079,-0.27509281,-0.79417092,-0.27764556,-0.79516357,-0.42805475,0.32998043
8758687500,-0.541493,0.0020275821,-0.27780956,-0.79681522,-0.27938622,-0.79148585,-0.42822891,0.33153778
8761250000,-0.54083729,0.0023921675,-0.27750853,-0.79719466,-0.27888337,-0.79496026,-0.42782518,0.33189943
8763812500,-0.5419113,0.0032757069,-0.27999228,-0.79377228,-0.28031394,-0.79477018,-0.42719153,0.33241397
8766375000,-0.54122579,0.0037805464,-0.27745172,-0.7930913,-0.28104791,-0.79421967,-0.42679361,0.33161476
