!CSV A.01.01
!Agilent Technologies,N5230C,MY49000690,A.09.42.22
!Agilent N5230C: A.09.42.22
!Date: Tuesday, April 18, 2017 16:33:55
!Source: Standard

BEGIN CH1_DATA
Freq(Hz),S11(MAG),S11(DEG),S12(MAG),S12(DEG),S21(MAG),S21(DEG),S22(MAG),S22(DEG)
8300000000,0.9950009,53.15353,0.00013229313,-158.57523,0.00010188422,164.92465,0.26055178,-63.745106
8302562500,0.99667466,53.298565,0.00011008418,123.43577,9.6614691e-005,158.51547,0.26120433,-63.788742
8305125000,0.99821585,52.833008,0.00010916213,166.53445,4.3301647e-005,-150.95473,0.26122069,-63.828426
8307687500,0.99455225,52.746777,5.9460064e-005,158.99605,4.996347e-005,168.98358,0.26186022,-63.783772
8310250000,0.99472743,52.676296,9.9370067e-005,119.06863,0.00012422771,-179.89282,0.26163182,-63.850056
8312812500,0.9893195,52.732334,9.8055556e-005,-157.92438,7.8462494e-005,173.18195,0.26137376,-63.870869
8315375000,0.99443173,52.672962,0.00012056467,-144.6595,5.368386e-005,136.98732,0.26168692,-63.745556
8317937500,0.9952231,52.806313,0.00012241919,176.86909,0.0001004739,174.53984,0.26207057,-63.636948
8320500000,0.99445009,52.314072,0.00010678109,140.75122,0.00011655778,154.36426,0.26069894,-63.644836
8323062500,0.99290156,52.253162,8.7283908e-005,164.42221,0.00010348667,148.77309,0.26199412,-63.256645
8325625000,0.99720347,52.108608,0.00012242883,159.49474,2.495887e-005,-98.740662,0.26216882,-63.167278
8328187500,0.99534637,52.095936,0.00012172707,170.5865,0.0001083833,141.42004,0.26314574,-63.186523
8330750000,0.99565893,52.067673,0.00010394643,178.48068,0.00013101981,140.20364,0.2634778,-63.084652
8333312500,0.99888796,51.145176,7.7982171e-005,-164.51228,0.00013496036,173.02034,0.26509061,-63.752937
8335875000,0.9948535,51.753613,5.8250451e-005,-141.06615,8.5604042e-005,-153.49321,0.26468486,-63.081512
8338437500,0.99449944,51.547226,6.4091211e-005,164.33392,7.9287893e-005,-157.4678,0.26597336,-62.99276
8341000000,0.9948827,51.508652,3.2240878e-005,94.288071,7.4849922e-005,145.30104,0.26615915,-63.046997
8343562500,0.99518937,51.375393,9.9324025e-005,179.64153,0.00017913747,168.34409,0.26669738,-62.865295
8346125000,0.99935579,51.10651,7.2397772e-005,174.09813,1.7253684e-005,-16.530766,0.26681799,-62.918797
8348687500,0.99764073,51.066177,9.9307559e-005,-165.38863,7.8477031e-005,-112.92113,0.26756269,-62.987164
8351250000,0.99609298,50.837395,2.6458942e-005,124.06742,0.00016318471,121.35497,0.26872706,-63.152218
8353812500,0.99502718,50.887878,0.00012268279,146.29903,0.000155487,-177.35335,0.26932949,-63.222507
8356375000,0.99352318,50.777992,7.7130688e-005,133.97133,7.2609662e-005,169.68538,0.27043554,-63.330875
8358937500,0.99374884,50.702843,9.2599184e-005,-168.52251,4.29336e-005,-135.4861,0.26961461,-63.71077
8361500000,0.99707872,50.62883,8.5191597e-005,-174.37943,3.5755791e-005,132.94914,0.269914,-64.042221
8364062500,0.99513298,50.526382,9.7886252e-005,-147.39967,8.6520951e-005,162.24287,0.26923397,-64.156181
8366625000,0.9950974,50.297985,0.0001406801,151.33118,4.1710853e-005,155.52562,0.26698929,-64.138229
8369187500,0.99545175,50.173168,0.00010087747,129.8049,0.00014642072,-170.01295,0.26776379,-64.072823
8371750000,0.99667513,50.246628,0.0001180621,155.79646,6.0587245e-005,140.73882,0.26659286,-64.108086
8374312500,0.99854952,50.071342,8.488039e-005,110.60159,0.00020162352,165.11888,0.26796257,-64.146004
8376875000,0.9976244,49.845276,0.00011426787,171.74368,9.3463248e-005,-146.2541,0.26708227,-64.096634
8379437500,0.99703056,49.774048,0.00010404074,162.58939,0.00022904619,170.20866,0.26584318,-64.180054
8382000000,0.99715561,49.769424,0.00011918273,167.86072,0.00012843325,169.38913,0.26552427,-64.104889
8384562500,0.99449235,49.497528,0.00012398041,167.04924,8.6572923e-005,-145.83745,0.26613888,-64.186386
8387125000,0.9956848,49.306465,0.00010024761,126.56939,0.00011696528,-170.8761,0.26612049,-64.005043
8389687500,0.99520344,49.356365,5.8156289e-005,134.02957,5.6223089e-005,-173.43858,0.26544589,-63.988216
8392250000,0.99718624,49.164391,0.00013983418,139.46362,6.9061207e-005,105.65382,0.26515934,-64.049911
8394812500,0.99569559,48.953033,9.0539594e-005,-170.56924,0.00013637719,149.55746,0.26530814,-64.025986
8397375000,0.99579847,48.973602,0.00010487919,143.61426,9.7151125e-005,-145.14534,0.2659826,-63.89407
8399937500,0.99656016,49.10004,0.00011479291,157.0071,0.0001072896,177.69705,0.26615739,-63.977966
8402500000,0.99380028,48.703068,8.6626096e-005,155.25215,0.00012449943,166.1571,0.26643065,-63.791378
8405062500,0.9942081,48.803471,0.00012848953,168.85968,8.047247e-005,171.59885,0.26652378,-63.717407
8407625000,0.99641663,48.633995,0.00016921102,151.2054,9.3867697e-005,155.95198,0.26758701,-63.773819
8410187500,0.9911719,48.439701,8.7966684e-005,156.81001,8.7302345e-005,146.37624,0.26784426,-63.805382
8412750000,0.99488735,48.379375,0.0001250284,157.2386,9.2599723e-005,159.92657,0.26933745,-63.908085
8415312500,0.99575514,48.041859,6.4883898e-005,175.49266,0.00013296664,135.76469,0.27068698,-63.880985
8417875000,0.99390739,48.033081,0.00010790003,144.93301,5.7770663e-005,100.49098,0.27061126,-64.168991
8420437500,0.9974522,47.98473,5.7164285e-005,95.381538,6.296191e-005,-178.93495,0.2701962,-64.278549
8423000000,0.9981901,47.994987,0.00010727661,165.75146,7.5872427e-005,-141.033,0.27173424,-64.457581
8425562500,0.9940365,47.731041,0.00012773204,148.66765,6.9638605e-005,179.39993,0.27173048,-64.364883
8428125000,0.99520832,47.637455,0.00015609368,131.77927,6.5059256e-005,-176.34375,0.27291921,-64.510216
8430687500,0.99251258,47.723888,8.4517444e-005,140.84174,0.00016837314,160.54784,0.27239481,-64.563728
8433250000,0.99315459,47.549126,0.00011895897,138.3533,0.00014012557,155.35011,0.27276981,-64.715157
8435812500,0.99511266,47.365299,9.22482e-005,152.96663,9.3556024e-005,172.71774,0.27263406,-64.998817
8438375000,0.99376601,47.233917,6.2151346e-005,-166.92477,0.00011356166,124.439,0.27150112,-64.94175
8440937500,0.99382448,47.186069,0.00013048564,158.23439,0.00013414843,150.647,0.27161279,-65.047707
8443500000,0.99559742,47.040096,4.5591638e-005,142.46082,0.00010868645,123.26249,0.27240339,-65.10511
8446062500,0.9960385,46.97094,0.00016392551,147.82291,0.00018719095,131.97374,0.27163452,-65.23735
8448625000,0.99497616,46.923901,0.00011285614,144.11227,6.6230663e-005,126.39767,0.27141318,-65.081329
8451187500,0.99692261,46.814556,9.0996284e-005,132.66855,0.0001228636,118.01484,0.27168515,-65.293884
8453750000,0.99620551,46.64109,3.440725e-005,178.3199,5.0922958e-005,59.697247,0.27014941,-65.11776
8456312500,0.99560177,46.501209,7.1298695e-005,158.08919,0.00013664275,148.27443,0.26928288,-64.903786
8458875000,0.99631119,46.429607,0.0001270642,155.73137,9.86663e-005,113.17237,0.26934287,-65.038254
8461437500,0.99561244,46.259003,8.9000532e-005,171.76573,0.00012652689,129.84914,0.27039668,-64.841324
8464000000,0.99470705,46.306381,0.00013204386,129.53551,0.00011914593,150.02853,0.27012718,-64.826126
8466562500,0.99554527,46.179207,0.00014458501,137.76593,0.00014035185,107.36739,0.26990789,-64.694115
8469125000,0.9943077,46.032776,0.00011026736,118.86499,0.00011625346,152.58418,0.27059528,-64.550301
8471687500,0.99665231,45.934361,0.00012841227,-174.15141,0.00014563379,118.7228,0.27102822,-64.492538
8474250000,0.99377137,45.919159,1.5666777e-005,107.74949,0.00012161639,99.105301,0.27134448,-64.30632
8476812500,0.99818039,45.744278,5.3051372e-005,151.49014,0.00013201668,127.5943,0.27213085,-64.322395
8479375000,0.99466854,45.594551,8.3267325e-005,114.27615,5.4181201e-005,-176.99617,0.27271461,-64.538582
8481937500,0.99725771,45.405426,0.00013832185,146.21088,0.00010156063,100.49436,0.27263212,-64.641747
8484500000,0.99473304,45.497616,0.00011505551,156.4317,0.00017655626,129.57288,0.27211979,-64.436325
8487062500,0.99534994,45.237942,8.5860134e-005,124.52956,0.00015931384,104.74412,0.27295092,-64.311234
8489625000,0.99694604,45.095947,7.3088384e-005,108.27289,0.0001045936,152.78928,0.27400777,-64.263733
8492187500,0.99499995,45.211548,8.2154715e-005,115.54698,0.00015568083,170.93781,0.27454063,-64.336617
8494750000,0.9928208,44.90696,8.6953449e-005,119.96265,4.8269845e-005,118.95119,0.27535549,-64.618546
8497312500,0.99656618,44.718468,0.00010077659,160.9937,0.00010312653,80.359917,0.27578354,-64.736626
8499875000,0.99686193,44.568489,8.5589098e-005,146.29326,0.00011434513,137.95024,0.27540094,-64.773018
8502437500,0.99506354,44.435627,0.00016740565,132.06746,0.00014242045,125.62005,0.27627736,-64.912132
8505000000,0.99394554,44.377876,0.00011416448,119.11337,9.0175687e-005,165.43018,0.27673903,-65.094391
8507562500,0.99569947,44.261177,0.00014022991,111.07087,0.00014120156,90.275169,0.27643073,-65.157372
8510125000,0.99362183,44.166103,0.00015814825,122.44041,9.667944e-005,-173.78418,0.27632782,-65.52095
8512687500,0.99278587,44.130367,0.00010607361,131.55017,0.00010010997,129.61104,0.27620026,-65.47821
8515250000,0.99670047,44.011738,9.0125272e-005,64.050842,7.449813e-005,125.04709,0.27657956,-65.917107
8517812500,0.99661356,43.904701,6.3859734e-005,105.84119,9.9028126e-005,94.020485,0.27716884,-66.131111
8520375000,0.99504048,43.650898,5.0468647e-005,135.46736,0.00018998276,124.33897,0.27527019,-66.173859
8522937500,0.99287277,43.68465,0.00018037719,113.43546,0.00017850714,113.29595,0.27440923,-66.358009
8525500000,0.99558806,43.557041,9.2880102e-005,102.99077,0.00011790273,144.29126,0.27397072,-66.151649
8528062500,0.99579185,43.444717,0.00018971648,121.94184,7.6969205e-005,83.059258,0.27469665,-66.06974
8530625000,0.9950847,43.433773,9.1343594e-005,82.942245,0.00014755798,100.42294,0.27352577,-66.159866
8533187500,0.99765116,43.205921,0.00012413679,89.786491,6.6122884e-005,99.161446,0.27425665,-66.392311
8535750000,0.99605012,43.173546,0.00011576209,126.28816,9.9944111e-005,156.11285,0.27399117,-66.665291
8538312500,0.99339241,43.075596,7.1506074e-005,91.685135,0.00014032175,113.70852,0.27490932,-66.588249
8540875000,0.99294382,42.871864,0.00014182007,128.69064,0.0001488768,108.55078,0.27402115,-66.760544
8543437500,0.99320018,42.971828,9.2278053e-005,77.731224,7.9927348e-005,131.20218,0.2740179,-66.8573
8546000000,0.99336267,42.827122,2.093681e-005,92.358459,0.00013236782,136.85649,0.27405027,-66.797401
8548562500,0.99280733,42.55024,0.00010757003,92.060013,8.204583e-005,102.84649,0.27503356,-66.546478
8551125000,0.99174297,42.504047,0.00015110869,103.52317,0.0001116517,70.511002,0.27498171,-66.739029
8553687500,0.99420357,42.562737,7.4351752e-005,74.625908,5.9897997e-005,138.71687,0.27479991,-66.641151
8556250000,0.99549353,42.279629,6.9015201e-005,109.91406,7.7416284e-005,119.40884,0.27482235,-66.644814
8558812500,0.99275982,42.311733,9.4150346e-005,161.10471,6.6739311e-005,116.92206,0.27525926,-66.666908
8561375000,0.99253982,42.082973,5.5585366e-005,108.78111,0.00010133038,69.62854,0.27659237,-66.607681
8563937500,0.99500501,42.024464,8.7087945e-005,105.89923,0.00011073796,99.822205,0.27730897,-66.591866
8566500000,0.99309546,41.81839,0.0001192521,110.67191,5.4476954e-005,133.41193,0.27741823,-66.636932
8569062500,0.99227256,41.800083,8.1819526e-005,65.591614,8.311381e-005,74.472069,0.279338,-66.690918
8571625000,0.99264842,41.742016,0.00011285813,90.701118,7.1290924e-005,100.56594,0.27887133,-66.841843
8574187500,0.99156857,41.619301,4.6720605e-005,98.575294,7.6076714e-005,49.413681,0.27905104,-67.071808
8576750000,0.99087518,41.370407,8.7214008e-005,110.34283,9.962987e-005,88.343918,0.27912915,-67.164185
8579312500,0.99198806,41.366703,2.9287096e-006,11.870459,0.0001036332,69.410324,0.28060472,-67.282288
8581875000,0.9929468,41.322872,0.00018371617,121.81078,0.00015544618,75.110687,0.2801322,-67.278694
8584437500,0.99402964,41.106556,0.00014484326,106.85191,8.1077036e-005,84.724701,0.28088811,-67.439293
8587000000,0.99199963,41.174911,8.4153988e-005,95.555496,1.9504683e-005,159.9364,0.27975702,-67.556427
8589562500,0.99164897,41.173569,7.2025941e-005,62.414173,8.879583e-005,126.26534,0.27897981,-67.822868
8592125000,0.99339551,40.957413,6.6306908e-005,62.908611,0.00011780208,98.499878,0.27925128,-67.809601
8594687500,0.9929502,40.834583,7.7445577e-005,37.970524,0.00012708615,74.275757,0.27908453,-67.733856
8597250000,0.99337679,40.799183,0.00011555693,112.84181,2.597692e-005,35.311142,0.27880391,-67.910637
8599812500,0.99436176,40.673653,9.7318014e-005,125.47005,0.00013385246,137.26485,0.28008687,-67.637825
8602375000,0.99549758,40.569267,9.2153561e-005,92.29097,0.0001223069,110.82635,0.27929214,-68.133484
8604937500,0.99387431,40.530029,6.005053e-005,103.60886,7.3892297e-005,59.780937,0.27848306,-67.95562
8607500000,0.99202323,40.38826,0.00013849705,112.74562,0.00011288191,76.40593,0.27899313,-67.990997
8610062500,0.99377328,40.231133,7.997916e-005,39.649319,8.0438702e-005,108.17505,0.27787128,-67.893845
8612625000,0.99548256,40.106518,1.968005e-005,39.907261,0.00015914222,84.365311,0.27801219,-67.842567
8615187500,0.99273413,39.967251,0.00016024367,71.884995,9.0094472e-005,116.69288,0.27748615,-67.802452
8617750000,0.99303335,40.000126,6.9997332e-005,140.7276,8.2728162e-005,93.775856,0.27764151,-68.017654
8620312500,0.99453771,39.837296,0.00010683304,83.942688,5.8138376e-005,122.83037,0.27695045,-67.954605
8622875000,0.99614239,39.65255,0.00013682675,135.74167,0.00014790526,126.37671,0.27660289,-67.966789
8625437500,0.99511814,39.486473,0.0001099193,77.169113,0.00017721226,90.445427,0.27643147,-67.949684
8628000000,0.99311173,39.641266,5.2366362e-005,170.73392,3.2905456e-005,80.743782,0.2768057,-67.936203
8630562500,0.99408984,39.465961,7.6341719e-005,145.06726,7.1246533e-005,59.674583,0.27607131,-67.981148
8633125000,0.99457401,39.452915,4.8256294e-005,114.17194,0.00012941865,132.1403,0.27655524,-67.802933
8635687500,0.99243903,39.343174,5.2972271e-005,64.890312,9.1268535e-005,91.527336,0.2774424,-67.500832
8638250000,0.99229091,39.025745,0.0001400871,108.10574,0.00013056354,57.801113,0.27863395,-67.417366
8640812500,0.99384481,38.9063,0.00011812062,159.45433,3.1633608e-005,172.58789,0.27946478,-67.664726
8643375000,0.99648494,38.705696,6.3475811e-005,140.38379,3.4807712e-005,82.648483,0.28006908,-67.961601
8645937500,0.99335241,38.819614,0.00013920252,60.137405,4.7559504e-005,114.03561,0.28013706,-68.029221
8648500000,0.99692076,38.682129,8.7931992e-005,123.80478,7.5143158e-005,112.10699,0.28128091,-68.098785
8651062500,0.99158436,38.671696,9.0015186e-005,88.317039,0.00011633908,62.145523,0.27983108,-68.269608
8653625000,0.99062264,38.636471,0.00011891055,79.326134,9.2395989e-005,39.924389,0.28043544,-68.523674
8656187500,0.99544036,38.32177,8.4106578e-005,68.027885,0.0001192855,92.889191,0.28052068,-68.654587
8658750000,0.99456197,38.293987,8.1030135e-005,11.979666,5.8665395e-005,52.829132,0.28148749,-68.694969
8661312500,0.99239373,37.984234,0.00010417799,60.421597,2.2752307e-005,-22.834372,0.28125432,-69.067871
8663875000,0.99827105,38.055653,4.8998954e-005,101.91215,9.7668868e-005,98.605431,0.28138807,-69.178406
8666437500,0.99400091,37.934204,0.0001372141,61.025883,0.00012513548,76.570053,0.2810539,-69.45137
8669000000,0.99506283,37.691315,0.00011223741,58.442089,6.1296472e-005,96.770584,0.27800217,-69.686951
8671562500,0.99553019,37.609356,7.6269222e-005,104.17941,8.3872677e-005,72.1633,0.2793985,-69.79882
8674125000,0.99497926,37.514832,9.9096695e-005,104.98679,0.00015477488,90.902924,0.27794427,-69.886635
8676687500,0.99540424,37.411716,6.2449501e-005,87.605614,0.00016045268,80.814384,0.27726308,-69.704414
8679250000,0.99297291,37.359901,0.00010271079,100.53888,0.00011969102,68.770226,0.27710438,-69.520462
8681812500,0.99374962,37.222675,9.8380217e-005,82.832832,0.00017345624,142.83817,0.27682695,-69.34816
8684375000,0.99596143,37.131413,0.00011836312,72.001556,0.00012003866,76.483727,0.27690867,-69.356133
8686937500,0.9942373,37.080486,9.3422808e-005,109.97865,0.00018496685,69.605019,0.2773779,-69.446587
8689500000,0.99365872,36.974548,0.00010254354,62.368622,0.00011693374,78.389511,0.27722582,-69.491188
8692062500,0.99420011,36.798264,9.2367307e-005,58.621376,0.00015655723,60.194862,0.27708986,-69.43512
8694625000,0.99516875,36.741634,3.075154e-005,54.40913,9.0133668e-005,103.56572,0.27672139,-69.364258
8697187500,0.99514133,36.696785,0.00017061546,98.391983,3.8842019e-005,118.92506,0.27716434,-69.334061
8699750000,0.99290943,36.613354,9.1366848e-005,85.32888,9.5279756e-005,39.752583,0.27738523,-69.180443
8702312500,0.9918161,36.544132,9.7107913e-005,69.037888,8.8610308e-005,68.688126,0.27801079,-69.021912
8704875000,0.9921369,36.381241,7.5785305e-005,29.08481,7.2178962e-005,55.806194,0.27888688,-68.912254
8707437500,0.99561518,36.348732,7.1144575e-005,81.549477,5.4007091e-005,108.76295,0.27833393,-68.926559
8710000000,0.99299258,36.025803,5.3669144e-005,101.50941,2.1732434e-005,106.89192,0.28030372,-68.849846
8712562500,0.99003458,36.055386,6.9544469e-005,27.74243,3.9422524e-005,-36.941711,0.28095785,-68.897133
8715125000,0.99390608,35.829823,7.5805772e-005,99.059059,0.00011138833,70.595093,0.28105649,-69.165306
8717687500,0.99352014,35.825359,1.2152654e-005,109.12513,5.2156847e-005,31.75853,0.28098044,-68.783348
8720250000,0.99177843,35.92931,7.5429205e-005,44.552509,7.7491612e-005,11.556828,0.28135359,-68.949852
8722812500,0.9916088,35.608559,4.8638314e-005,120.91042,2.942263e-005,11.401308,0.28310612,-69.004356
8725375000,0.99084318,35.556641,9.7067117e-005,-2.9401624,0.00011186277,19.748688,0.28362778,-69.307777
8727937500,0.99769777,35.486462,7.6857956e-005,41.610558,8.3085455e-005,81.684013,0.28450954,-69.448624
8730500000,0.99451256,35.194649,0.00011223258,56.521507,0.00011925432,85.736565,0.28431389,-69.748276
8733062500,0.99361724,35.335949,3.2673506e-005,157.64778,0.00010545669,21.114277,0.28349203,-69.749138
8735625000,0.99389434,35.244038,6.7157809e-005,16.433638,8.2864339e-005,57.589405,0.28368837,-70.239693
8738187500,0.98960435,35.020275,6.4238397e-005,58.048561,0.00014611203,18.714273,0.28170717,-70.431129
8740750000,0.99534142,35.096962,6.6824025e-005,43.857586,3.7088943e-005,119.80338,0.28156617,-70.571198
8743312500,0.99084044,35.073227,0.00014733229,86.414612,1.6716924e-005,67.870872,0.28015864,-70.582779
8745875000,0.99232113,34.968639,5.1743227e-005,29.68239,1.2030567e-005,171.2843,0.27985874,-70.225136
8748437500,0.99663341,34.870361,5.5143384e-005,106.08215,0.00013318885,18.816729,0.2795538,-70.319275
8751000000,0.99295056,34.740231,3.336362e-005,19.640238,5.3358239e-005,139.15074,0.28031856,-70.353867
8753562500,0.9947359,34.612648,7.4574862e-005,-20.01981,7.2288378e-005,60.086452,0.27930066,-70.441002
8756125000,0.99130189,34.513775,1.0333867e-005,-94.621994,0.00011596965,-25.147133,0.27836263,-70.567146
8758687500,0.99244863,34.43869,1.8066008e-005,-143.43535,0.00013435967,13.218503,0.277055,-70.854736
8761250000,0.99176019,34.416275,7.3076553e-005,55.475895,8.5172833e-005,46.6926,0.27619842,-70.858757
8763812500,0.99304777,34.236118,5.5407094e-005,34.154278,3.0247296e-005,31.383091,0.27570111,-70.680618
8766375000,0.99269313,34.13166,7.9089667e-005,101.31401,5.5544657e-005,20.51169,0.27490842,-70.532852
8768937500,0.99436402,33.967602,0.00011378192,44.509472,9.3916686e-005,-15.808316,0.27514493,-70.328949
8771500000,0.99445105,33.914074,7.674571e-005,76.197418,4.1952164e-005,109.42614,0.27549168,-70.377365
8774062500,0.99338686,33.814861,7.5062577e-005,64.840691,0.00010715491,2.2594266,0.27587226,-70.368607
8776625000,0.99326515,33.657726,3.0594761e-005,104.91566,8.3985346e-005,-8.7182941,0.27583149,-70.326088
8779187500,0.99342966,33.611153,5.7768724e-005,141.52046,3.0924737e-005,9.0522947,0.27571842,-70.372314
8781750000,0.99262542,33.525288,2.7482001e-005,170.68832,4.6424473e-005,85.328682,0.27462196,-70.522514
8784312500,0.99371153,33.407467,7.9567042e-005,70.124023,4.4794731e-005,-18.900658,0.27366799,-70.307198
