!CSV A.01.01
!Agilent Technologies,N5230C,MY49000690,A.09.42.22
!Agilent N5230C: A.09.42.22
!Date: Tuesday, April 18, 2017 16:29:20
!Source: Standard

BEGIN CH1_DATA
Freq(Hz),S11(REAL),S11(IMAG),S12(REAL),S12(IMAG),S21(REAL),S21(IMAG),S22(REAL),S22(IMAG)
8300000000,-0.51718313,-0.33691952,-0.10331743,-0.77007383,-0.10501611,-0.77229577,-0.39554369,0.47402346
8302562500,-0.51670444,-0.33518416,-0.10414109,-0.77310866,-0.10691182,-0.77126992,-0.39517564,0.47689778
8305125000,-0.51786411,-0.33792007,-0.10457765,-0.77144259,-0.10497808,-0.77343613,-0.39478472,0.47466031
8307687500,-0.51761311,-0.33421442,-0.10609356,-0.77167726,-0.11008751,-0.77084249,-0.392784,0.47596654
8310250000,-0.51760167,-0.33549282,-0.10612348,-0.77028286,-0.10918846,-0.77258849,-0.39250499,0.47546485
8312812500,-0.51637393,-0.33640265,-0.10782124,-0.77056772,-0.10718831,-0.77258748,-0.39138475,0.47624967
8315375000,-0.51683503,-0.33444226,-0.10444566,-0.7687425,-0.11085574,-0.77050543,-0.39040166,0.47355977
8317937500,-0.51494604,-0.33568874,-0.10818345,-0.77050769,-0.10888175,-0.77101862,-0.38914695,0.4769915
8320500000,-0.51495129,-0.33636379,-0.11079606,-0.77066362,-0.10931082,-0.77208656,-0.38669348,0.47856227
8323062500,-0.51614058,-0.33514225,-0.10824576,-0.77173007,-0.11128068,-0.77190167,-0.3895112,0.47761691
8325625000,-0.51383734,-0.33438706,-0.11047628,-0.77240753,-0.11078485,-0.77058983,-0.38735339,0.48037836
8328187500,-0.51654679,-0.33510053,-0.10785333,-0.77180165,-0.11370298,-0.77317256,-0.38784015,0.47853103
8330750000,-0.51376706,-0.3360028,-0.11024498,-0.76905674,-0.11129137,-0.77148193,-0.38440761,0.47855887
8333312500,-0.51988745,-0.33005449,-0.11970468,-0.77111346,-0.1246003,-0.77152789,-0.37802476,0.48506206
8335875000,-0.51376653,-0.33585703,-0.11183492,-0.7724387,-0.11302146,-0.77112979,-0.38313431,0.48170629
8338437500,-0.51450354,-0.33435473,-0.11049896,-0.76976436,-0.11361122,-0.77411991,-0.38251588,0.48025149
8341000000,-0.51374376,-0.33392921,-0.11378071,-0.77061725,-0.1141443,-0.77128345,-0.37975729,0.48202842
8343562500,-0.51491058,-0.33382836,-0.11312175,-0.77090752,-0.11576761,-0.77292126,-0.38008553,0.48236457
8346125000,-0.51520711,-0.33371183,-0.11236522,-0.77197778,-0.11620171,-0.77249908,-0.37998515,0.48084608
8348687500,-0.51520741,-0.33301914,-0.11396764,-0.77306396,-0.11714581,-0.77119637,-0.3792319,0.48296651
8351250000,-0.51549131,-0.33157283,-0.11554156,-0.77198094,-0.11942868,-0.77138811,-0.37781319,0.48445895
8353812500,-0.51417887,-0.33201784,-0.11500907,-0.77281117,-0.1184785,-0.77128381,-0.37808859,0.48501375
8356375000,-0.51136518,-0.33215439,-0.11540544,-0.77173942,-0.1166267,-0.7710104,-0.37819132,0.485461
8358937500,-0.51261669,-0.33149779,-0.11625915,-0.77096784,-0.11922634,-0.76947951,-0.37469098,0.48524481
8361500000,-0.51296997,-0.33465606,-0.11652011,-0.77139109,-0.1197068,-0.7724452,-0.37418607,0.48666471
8364062500,-0.51220185,-0.33382821,-0.11724631,-0.77091891,-0.11996523,-0.77198291,-0.37357247,0.48672786
8366625000,-0.51292676,-0.33212769,-0.11785961,-0.77062184,-0.12091629,-0.77097863,-0.37306815,0.48669463
8369187500,-0.51280355,-0.3309966,-0.11859859,-0.77077013,-0.12083576,-0.77198625,-0.37317163,0.48728558
8371750000,-0.51199543,-0.33355621,-0.11961401,-0.77121103,-0.11955946,-0.77272248,-0.37270489,0.48818308
8374312500,-0.51482654,-0.33395383,-0.1207017,-0.77333122,-0.12185088,-0.77325904,-0.37141624,0.48887596
8376875000,-0.51446599,-0.3333078,-0.12195469,-0.77354544,-0.12260862,-0.77269465,-0.37030911,0.49022806
8379437500,-0.51324439,-0.33160475,-0.12202889,-0.77311116,-0.12470894,-0.77036858,-0.3698374,0.49097574
8382000000,-0.51567346,-0.33173656,-0.12208316,-0.77279216,-0.12669343,-0.77324033,-0.37000835,0.49096695
8384562500,-0.51382923,-0.33170491,-0.12420578,-0.77291119,-0.12483498,-0.77169347,-0.36922139,0.49164486
8387125000,-0.51432019,-0.33026055,-0.1242453,-0.7721476,-0.12551874,-0.77024251,-0.3688826,0.49109864
8389687500,-0.51314235,-0.32937601,-0.1261999,-0.77088368,-0.12552643,-0.76851851,-0.36680567,0.49212003
8392250000,-0.51352715,-0.32975206,-0.12749527,-0.77248353,-0.12775604,-0.76879406,-0.36635581,0.49393004
8394812500,-0.51496828,-0.32732865,-0.12665807,-0.77007842,-0.13027309,-0.76914251,-0.36572734,0.49193552
8397375000,-0.51520288,-0.32873833,-0.12408474,-0.77193028,-0.1308483,-0.77142203,-0.36791843,0.49169189
8399937500,-0.51545852,-0.32985646,-0.12692294,-0.77382147,-0.12966146,-0.7713201,-0.36726025,0.49431786
8402500000,-0.51688838,-0.3286055,-0.127232,-0.76839495,-0.13088565,-0.77197868,-0.36381099,0.4915182
8405062500,-0.51719284,-0.32931817,-0.12766683,-0.77059948,-0.13128333,-0.77092046,-0.3629868,0.49226776
8407625000,-0.51448339,-0.33084121,-0.12886061,-0.77309424,-0.12734307,-0.76990288,-0.36514249,0.49365342
8410187500,-0.5149979,-0.3276006,-0.13011396,-0.76977772,-0.13127945,-0.76959699,-0.36307698,0.49432585
8412750000,-0.51615781,-0.33098707,-0.13142817,-0.76932883,-0.13084334,-0.77189887,-0.36027947,0.49471027
8415312500,-0.5163452,-0.3277539,-0.13027582,-0.77109104,-0.13288085,-0.77137232,-0.36264572,0.49408099
8417875000,-0.51773381,-0.32773551,-0.13079686,-0.77019066,-0.13449664,-0.77281004,-0.36175865,0.49453616
8420437500,-0.51738501,-0.32773453,-0.13163091,-0.76970816,-0.13604146,-0.77156287,-0.36050588,0.49469742
8423000000,-0.5168249,-0.32907209,-0.13229255,-0.77080458,-0.13414647,-0.77170229,-0.36012575,0.49580491
8425562500,-0.5158273,-0.32672188,-0.13378812,-0.77139097,-0.13362041,-0.77125192,-0.36130434,0.49666506
8428125000,-0.51594847,-0.3275854,-0.13359401,-0.77288729,-0.13536969,-0.77059859,-0.36011851,0.49777862
8430687500,-0.51476556,-0.32749414,-0.13110955,-0.76998436,-0.13536631,-0.76991338,-0.35888767,0.49530965
8433250000,-0.51510316,-0.32732639,-0.13450323,-0.76933366,-0.13580005,-0.77239627,-0.35818487,0.49757239
8435812500,-0.51597154,-0.32705024,-0.13616249,-0.76901883,-0.13668667,-0.77118856,-0.35589439,0.49693781
8438375000,-0.51593196,-0.32650548,-0.13577677,-0.76932842,-0.1392639,-0.77135998,-0.35562724,0.49872178
8440937500,-0.51536077,-0.32719493,-0.13537322,-0.77050894,-0.14069389,-0.7693637,-0.35399657,0.49861282
8443500000,-0.5162428,-0.32719475,-0.13411266,-0.77054852,-0.14149629,-0.7710669,-0.35531834,0.49787894
8446062500,-0.51620644,-0.32721305,-0.13737127,-0.77027404,-0.13972577,-0.77089375,-0.3528432,0.4984698
8448625000,-0.5151208,-0.32747039,-0.13764052,-0.77170622,-0.1387803,-0.7685681,-0.3525728,0.49844852
8451187500,-0.51680535,-0.32816628,-0.14133701,-0.77113992,-0.1407592,-0.77187663,-0.35066095,0.50236851
8453750000,-0.51748526,-0.32788551,-0.13954183,-0.7709859,-0.14151068,-0.77166843,-0.35105798,0.49991593
8456312500,-0.51619601,-0.32819331,-0.13970412,-0.76986754,-0.14099808,-0.77034038,-0.34913588,0.49962157
8458875000,-0.51673895,-0.3282125,-0.13934499,-0.7689358,-0.14284259,-0.77314681,-0.34840599,0.50071925
8461437500,-0.51440078,-0.32978201,-0.14209239,-0.77026594,-0.14126661,-0.77032793,-0.34742907,0.50347072
8464000000,-0.51604497,-0.32849666,-0.13952588,-0.77214116,-0.1445663,-0.77131921,-0.34729794,0.5020287
8466562500,-0.51437777,-0.32929567,-0.14275604,-0.76843226,-0.14279754,-0.76904482,-0.34390289,0.50298733
8469125000,-0.51618475,-0.32830152,-0.14196438,-0.77236623,-0.14524893,-0.77008986,-0.34625313,0.50281805
8471687500,-0.51474285,-0.32664996,-0.14479965,-0.76812613,-0.14725262,-0.76901698,-0.34249014,0.5045045
8474250000,-0.51328391,-0.32725671,-0.14358406,-0.76982766,-0.14708313,-0.76722884,-0.34266084,0.50442582
8476812500,-0.5137881,-0.3280125,-0.14375661,-0.7679261,-0.14537346,-0.76799071,-0.34226477,0.50404084
8479375000,-0.51457691,-0.32846782,-0.14614925,-0.76786655,-0.14666408,-0.76963192,-0.34102249,0.50590152
8481937500,-0.51388764,-0.32809573,-0.14529558,-0.77097064,-0.14817475,-0.76871496,-0.34078515,0.50668961
8484500000,-0.51364595,-0.32794902,-0.14575802,-0.76973355,-0.14859176,-0.76817203,-0.33957574,0.50626379
8487062500,-0.51321507,-0.32960972,-0.14669938,-0.76875395,-0.14739946,-0.76897067,-0.33869192,0.50761908
8489625000,-0.51446956,-0.32884631,-0.14858028,-0.77041513,-0.14828449,-0.76880652,-0.33848125,0.50792015
8492187500,-0.51387626,-0.32822433,-0.14798757,-0.77006489,-0.15050945,-0.7674067,-0.33722329,0.50803983
8494750000,-0.51326215,-0.3273451,-0.15062584,-0.77074927,-0.1524443,-0.7663905,-0.33611336,0.50938487
8497312500,-0.51605785,-0.32862788,-0.15141594,-0.76955909,-0.15147844,-0.77021295,-0.33606195,0.50944006
8499875000,-0.51458007,-0.32855546,-0.15148377,-0.76851922,-0.15191659,-0.77114004,-0.3370932,0.50967598
8502437500,-0.51446366,-0.32651636,-0.1512228,-0.76806289,-0.15190317,-0.76973486,-0.33519769,0.51020569
8505000000,-0.51388669,-0.32608813,-0.15162833,-0.76977295,-0.15420054,-0.76839113,-0.33455992,0.51043409
8507562500,-0.51446581,-0.32778072,-0.15222567,-0.77104938,-0.15364142,-0.76820689,-0.33298689,0.51082224
8510125000,-0.51438224,-0.32726467,-0.1513931,-0.76792675,-0.15620063,-0.76788211,-0.33228934,0.51134348
8512687500,-0.51432765,-0.32682601,-0.15181072,-0.76861393,-0.15654431,-0.76662743,-0.33179727,0.51186883
8515250000,-0.51396948,-0.32701266,-0.15353467,-0.76661307,-0.15344818,-0.76868701,-0.33141685,0.51165444
8517812500,-0.51483387,-0.32632917,-0.15336664,-0.76855993,-0.15461132,-0.76899821,-0.33182204,0.5120191
8520375000,-0.51511234,-0.32505676,-0.15405814,-0.76843232,-0.1562039,-0.76717615,-0.33153197,0.51178414
8522937500,-0.51343292,-0.32479653,-0.15405415,-0.76672339,-0.15653954,-0.7684682,-0.3303746,0.51240706
8525500000,-0.51497447,-0.32550469,-0.15572123,-0.76855916,-0.15804558,-0.76940787,-0.33070704,0.51408243
8528062500,-0.51670575,-0.32598901,-0.15710534,-0.7689141,-0.1556769,-0.77056032,-0.33043948,0.51241601
8530625000,-0.51386917,-0.32520115,-0.15656349,-0.76960427,-0.15750624,-0.76701063,-0.33189273,0.51412606
8533187500,-0.51666045,-0.32598922,-0.15827648,-0.76837552,-0.15698238,-0.7694211,-0.32849008,0.51340991
8535750000,-0.51426172,-0.32490912,-0.1565493,-0.76820666,-0.15901826,-0.76730222,-0.32731944,0.51252139
8538312500,-0.51438206,-0.32271844,-0.15748833,-0.76892853,-0.16013762,-0.76798636,-0.32936046,0.51449883
8540875000,-0.51397848,-0.32171035,-0.1588902,-0.76512277,-0.16196124,-0.76642746,-0.32629639,0.51410353
8543437500,-0.51524639,-0.3223055,-0.15826319,-0.76510108,-0.16223675,-0.76958424,-0.32514054,0.51373267
8546000000,-0.51609528,-0.32272974,-0.16187486,-0.76920706,-0.16234364,-0.76912642,-0.32606259,0.51433241
8548562500,-0.51244164,-0.32175365,-0.16086987,-0.76800901,-0.16124094,-0.76660681,-0.32711616,0.5162248
8551125000,-0.51465088,-0.32215875,-0.15997596,-0.76791316,-0.16215435,-0.76971847,-0.32602578,0.51488858
8553687500,-0.51642728,-0.32237941,-0.1615137,-0.76769161,-0.16308014,-0.76972622,-0.32415619,0.51523983
8556250000,-0.51394802,-0.32042012,-0.16227823,-0.76678717,-0.16547887,-0.76671094,-0.32292211,0.51473546
8558812500,-0.51640344,-0.32187328,-0.16258764,-0.76780742,-0.16328451,-0.76831204,-0.32219264,0.51473302
8561375000,-0.51604062,-0.31947133,-0.16342494,-0.76827741,-0.1654779,-0.7679702,-0.3225688,0.5155763
8563937500,-0.51518291,-0.32080603,-0.16406754,-0.76746917,-0.16581851,-0.76818395,-0.32285759,0.5169422
8566500000,-0.51707983,-0.31909305,-0.16597101,-0.76825362,-0.1669883,-0.76724297,-0.32096091,0.51567972
8569062500,-0.51572019,-0.31931213,-0.16525029,-0.76782507,-0.16818301,-0.76763976,-0.32086042,0.51623636
8571625000,-0.51469618,-0.31863263,-0.16547929,-0.76517951,-0.1675927,-0.76784122,-0.31919771,0.51571554
8574187500,-0.51534724,-0.32004961,-0.16539745,-0.76800829,-0.16779433,-0.7677328,-0.31830075,0.51854259
8576750000,-0.51454693,-0.31926289,-0.16697831,-0.76552504,-0.17009516,-0.76638591,-0.31775916,0.51566172
8579312500,-0.514911,-0.31915018,-0.16673708,-0.76607537,-0.17039651,-0.76729172,-0.31852078,0.51755416
8581875000,-0.51575875,-0.32063335,-0.16806722,-0.76623607,-0.1708131,-0.767744,-0.31539497,0.51788086
8584437500,-0.51602769,-0.31886789,-0.17059821,-0.76524329,-0.17150746,-0.76623005,-0.31090936,0.51626998
8587000000,-0.51568693,-0.318858,-0.16959673,-0.76485211,-0.17150036,-0.76592857,-0.31331831,0.51712495
8589562500,-0.51423526,-0.3191686,-0.16886394,-0.76545441,-0.17115694,-0.76702738,-0.31336451,0.51758564
8592125000,-0.51534688,-0.31959584,-0.17018743,-0.76596683,-0.1727718,-0.76679146,-0.3113369,0.51736206
8594687500,-0.51463586,-0.32041979,-0.16908397,-0.76734406,-0.17404726,-0.76797652,-0.31140217,0.51872057
8597250000,-0.51518202,-0.31979811,-0.17159902,-0.76646376,-0.17338252,-0.76640862,-0.31166127,0.52015448
8599812500,-0.51589853,-0.31963745,-0.17135702,-0.7669642,-0.17455216,-0.7655465,-0.31004187,0.52031302
8602375000,-0.51604253,-0.32045972,-0.17390418,-0.76686585,-0.17456941,-0.76670235,-0.30764413,0.52150422
8604937500,-0.51573759,-0.3209739,-0.17253365,-0.76508933,-0.17636679,-0.76702273,-0.30529308,0.52094144
8607500000,-0.51512629,-0.31987348,-0.17489307,-0.76566839,-0.17420685,-0.76666963,-0.3067351,0.52285641
8610062500,-0.51573235,-0.3193537,-0.17442717,-0.76635641,-0.17617959,-0.76776481,-0.30786762,0.5225175
8612625000,-0.51646852,-0.31932268,-0.17409846,-0.76717514,-0.17646992,-0.76681864,-0.30701849,0.52219635
8615187500,-0.5156166,-0.31898901,-0.17747875,-0.76709688,-0.17730479,-0.76599163,-0.30630663,0.52268797
8617750000,-0.51503754,-0.31998655,-0.17573228,-0.7669552,-0.17861497,-0.76503277,-0.30419073,0.5239554
8620312500,-0.51633257,-0.31999668,-0.17773955,-0.76545727,-0.17927048,-0.76481903,-0.30273789,0.52423662
8622875000,-0.5164625,-0.31982508,-0.17695098,-0.76558238,-0.18104826,-0.76475382,-0.30242458,0.52364981
8625437500,-0.51623553,-0.3162609,-0.17752582,-0.76573139,-0.18464601,-0.76567817,-0.30276766,0.52388418
8628000000,-0.51518106,-0.31992671,-0.1779806,-0.76437318,-0.17956823,-0.76418525,-0.30182838,0.52521998
8630562500,-0.51390857,-0.32002461,-0.17985547,-0.76637012,-0.18254076,-0.76503265,-0.29969266,0.52683783
8633125000,-0.51735485,-0.31880391,-0.17857932,-0.76752752,-0.18274178,-0.76741588,-0.3002691,0.52781695
8635687500,-0.51631963,-0.31977445,-0.17876716,-0.76509988,-0.1843106,-0.76634866,-0.30063882,0.52711159
8638250000,-0.51341683,-0.31741655,-0.18147817,-0.76567459,-0.183465,-0.76402372,-0.2981953,0.52813369
8640812500,-0.51538593,-0.31803018,-0.17805523,-0.76568699,-0.18637921,-0.76504833,-0.29831222,0.52970248
8643375000,-0.51348406,-0.31749243,-0.18419547,-0.76536483,-0.18499753,-0.76507962,-0.29745945,0.52814609
8645937500,-0.51468301,-0.31900451,-0.182717,-0.76656723,-0.18626721,-0.76483655,-0.29549021,0.52743864
8648500000,-0.51367861,-0.32053387,-0.18243785,-0.76767772,-0.18704936,-0.76516616,-0.29575804,0.52953583
8651062500,-0.51335239,-0.31762162,-0.18380949,-0.76451421,-0.18580545,-0.76331997,-0.29405969,0.52752471
8653625000,-0.51224595,-0.31806463,-0.18502332,-0.76396108,-0.18557756,-0.76422453,-0.29454249,0.5275197
8656187500,-0.51486754,-0.31965813,-0.18561909,-0.76485205,-0.187031,-0.76552492,-0.29504108,0.5292449
8658750000,-0.5145632,-0.32017428,-0.18617971,-0.76643771,-0.18770824,-0.76504493,-0.29462543,0.5307436
8661312500,-0.51501173,-0.31647718,-0.18551594,-0.76497787,-0.18864213,-0.76427555,-0.29365253,0.52863985
8663875000,-0.51572102,-0.31868339,-0.18633591,-0.766855,-0.19097055,-0.76526749,-0.29396111,0.52951652
8666437500,-0.5150522,-0.31611902,-0.18863221,-0.76548994,-0.18897566,-0.76279563,-0.29261094,0.52898115
8669000000,-0.51495868,-0.31637809,-0.18914232,-0.7620092,-0.19043262,-0.76151359,-0.28925744,0.52881497
8671562500,-0.51399988,-0.31644449,-0.19014949,-0.76230383,-0.19065154,-0.76631951,-0.28965464,0.5300647
8674125000,-0.51564848,-0.31654006,-0.19160505,-0.76366079,-0.19401897,-0.76419801,-0.29037362,0.53109688
8676687500,-0.51599765,-0.31621808,-0.18974635,-0.76430112,-0.19438872,-0.7627061,-0.28854242,0.53128409
8679250000,-0.51398921,-0.31599927,-0.1907299,-0.7646904,-0.19052227,-0.76469213,-0.28921789,0.53081673
8681812500,-0.51390052,-0.31619698,-0.18928011,-0.76541424,-0.18993264,-0.76447845,-0.28861251,0.52902573
8684375000,-0.51553452,-0.31590274,-0.19105168,-0.76374859,-0.19419821,-0.76324421,-0.2872124,0.52948987
8686937500,-0.51400471,-0.31544402,-0.19323364,-0.76311231,-0.19195265,-0.76311296,-0.28655201,0.53031886
8689500000,-0.51372743,-0.31506264,-0.19325803,-0.76281327,-0.19540501,-0.76546019,-0.28557193,0.53057623
8692062500,-0.51494122,-0.31511712,-0.19510379,-0.76349258,-0.1955722,-0.7628181,-0.28590053,0.53088433
8694625000,-0.51520699,-0.31491405,-0.19283254,-0.76599348,-0.19606045,-0.76337785,-0.28468972,0.53030008
8697187500,-0.5146572,-0.31409612,-0.194993,-0.76230752,-0.19595136,-0.76564634,-0.28432518,0.53131557
8699750000,-0.51385403,-0.31389019,-0.19736625,-0.76396525,-0.19651856,-0.76284719,-0.2833952,0.53178471
8702312500,-0.51352543,-0.314899,-0.1943936,-0.76308137,-0.19795713,-0.76230937,-0.28215405,0.53258151
8704875000,-0.51397872,-0.31416675,-0.19477504,-0.7633006,-0.19934037,-0.76373941,-0.28153563,0.53290606
8707437500,-0.51437747,-0.31334928,-0.19780295,-0.76100528,-0.19947045,-0.76381743,-0.28072372,0.53113735
8710000000,-0.51330352,-0.31158489,-0.19724995,-0.76374549,-0.19967517,-0.76267463,-0.2804521,0.53369623
8712562500,-0.51365888,-0.31080586,-0.20004088,-0.7646758,-0.20149499,-0.76246792,-0.27678156,0.53436697
8715125000,-0.5148114,-0.31261614,-0.20008947,-0.76353484,-0.2012085,-0.76385611,-0.27681917,0.5339281
8717687500,-0.51739466,-0.31312513,-0.19940412,-0.76323718,-0.20155214,-0.76422691,-0.27730229,0.53329766
8720250000,-0.51521707,-0.31200185,-0.19879641,-0.76469326,-0.20085573,-0.76264441,-0.27806032,0.53415364
8722812500,-0.51202101,-0.31131372,-0.19979732,-0.76391745,-0.20206738,-0.76137954,-0.27606112,0.53368407
8725375000,-0.51638973,-0.31207454,-0.20163532,-0.76388717,-0.20263469,-0.76282573,-0.27584577,0.5358966
8727937500,-0.51565802,-0.31347433,-0.20332401,-0.76487786,-0.20609306,-0.76270449,-0.27337602,0.53641135
8730500000,-0.51605034,-0.31289473,-0.20466404,-0.76242238,-0.20575318,-0.7621339,-0.27034765,0.53499407
8733062500,-0.51777226,-0.31345043,-0.20349962,-0.76379085,-0.2063185,-0.76315725,-0.27181998,0.53569394
8735625000,-0.51507872,-0.31310809,-0.20447971,-0.7617985,-0.20649503,-0.76450902,-0.27056774,0.53855598
8738187500,-0.51506549,-0.31244475,-0.20397654,-0.76176685,-0.20680349,-0.76296109,-0.27116284,0.53536797
8740750000,-0.51610702,-0.31152144,-0.20689607,-0.76115191,-0.20658019,-0.7625376,-0.26800931,0.53862971
8743312500,-0.51373035,-0.31208581,-0.20636523,-0.76102012,-0.20579182,-0.76141626,-0.26890591,0.53941137
8745875000,-0.51511729,-0.31253299,-0.20645803,-0.76219869,-0.20794453,-0.76341587,-0.2687,0.539967
8748437500,-0.51560736,-0.31279674,-0.20802678,-0.76536125,-0.21052252,-0.7612164,-0.26796949,0.54050589
8751000000,-0.51488107,-0.31234288,-0.20889837,-0.76159954,-0.20929544,-0.76332974,-0.26703745,0.54069144
8753562500,-0.51546627,-0.31182271,-0.20836936,-0.76137447,-0.21191737,-0.76266855,-0.26568612,0.54034615
8756125000,-0.51661581,-0.3119548,-0.20951509,-0.75940239,-0.21235001,-0.75977892,-0.26517558,0.53991967
8758687500,-0.51457739,-0.31130913,-0.21062122,-0.76175719,-0.2101334,-0.75933594,-0.26375911,0.54085368
8761250000,-0.51490283,-0.31179366,-0.20975846,-0.75922418,-0.21307589,-0.76038349,-0.26323375,0.54176432
8763812500,-0.51584113,-0.31152147,-0.21092334,-0.76146072,-0.21556072,-0.7595765,-0.26279223,0.54274297
8766375000,-0.51565474,-0.31126881,-0.2123996,-0.76058722,-0.21327765,-0.75871855,-0.26207778,0.54215562
8768937500,-0.51672155,-0.31149513,-0.21315338,-0.76129025,-0.21687919,-0.76009446,-0.26150429,0.54335696
8771500000,-0.51680493,-0.31136855,-0.21419835,-0.75921088,-0.21739744,-0.75791436,-0.26014319,0.54292572
